===============================================================================
Module : APB_Timer
===============================================================================
SCORE  LINE   COND   TOGGLE FSM    BRANCH 
 55.33  72.22  58.82  37.32 --      52.94 

Source File(s) : 

/home/marcom/common/Documents/ECE593/FinalM2_3/ece593-apb-verification/apb_verification_MS2-MS3_Class/rtl/APB/APB_Timer.sv

Module self-instances :

SCORE  LINE   COND   TOGGLE FSM    BRANCH NAME                   
 55.33  72.22  58.82  37.32 --      52.94 APB_TOP.apb_sys.timer0 



-------------------------------------------------------------------------------
Line Coverage for Module : APB_Timer

             Line No.   Total   Covered  Percent
TOTAL                       36       26    72.22
ALWAYS             38        9        7    77.78
ALWAYS             64       27       19    70.37

37                      always_ff @(posedge i_pclk or negedge i_prstn) begin
38         1/1              if (!i_prstn) begin
39         1/1                  for (int i = 0; i < num_timers; i++) begin
40         1/1                      t_reg[i] <= '0;
41                              end
42                          end 
43                          else begin
44                              // 1. Default Timer Behavior: Decrement if > 0
45         1/1                  for (int i = 0; i < num_timers; i++) begin
46         1/1                      if (t_reg[i] > 0) begin
47         0/1     ==>                  t_reg[i] <= t_reg[i] - 1;
48                                  end
                        MISSING_ELSE
49                              end
50                      
51                              // 2. APB Write: Overrides the decrement if a new value is written
52         1/1                  if (i_psel && i_penable && i_pwrite && o_pready) begin
53         1/1                      if (timer_idx < num_timers) begin
54         0/1     ==>                  t_reg[timer_idx] <= i_pwdata;
55                                  end
                        MISSING_ELSE
56                              end
                        MISSING_ELSE
57                          end
58                      end
59                      
60                      // ==============================================================================
61                      // APB Read & Wait State Protocol Logic
62                      // ==============================================================================
63                      always_ff @(posedge i_pclk or negedge i_prstn) begin
64         1/1              if (!i_prstn) begin
65         1/1                  count_pready <= '0;
66         1/1                  o_pready     <= 1'b0;
67         1/1                  o_prdata     <= '0;
68                          end
69                          // APB Setup Phase
70         1/1              else if (i_psel && !i_penable) begin
71         1/1                  count_pready <= '0;
72         1/1                  if (i_pwrite && WAIT_WRITE == 0) begin         // Write command, no wait states
73         1/1                      o_pready <= 1'b1;
74                              end 
75         1/1                  else if (!i_pwrite && WAIT_READ == 0) begin    // Read command, no wait states
76         1/1                      o_pready <= 1'b1;
77         1/1                      o_prdata <= (timer_idx < num_timers) ? t_reg[timer_idx] : '0;
78                              end 
79                              else begin
80         0/1     ==>              o_pready <= 1'b0;
81                              end
82                          end
83                          // APB Access Phase - Write with Wait States
84         1/1              else if (i_pwrite && i_psel) begin
85         1/1                  if (count_pready == $bits(count_pready)'(WAIT_WRITE-1)) begin
86         0/1     ==>              o_pready     <= 1'b1;
87         0/1     ==>              count_pready <= count_pready + $bits(count_pready)'(1);	  
88                              end 
89         1/1                  else if (count_pready == $bits(count_pready)'(WAIT_WRITE)) begin
90         1/1                      o_pready <= 1'b0;
91                              end 
92                              else begin
93         0/1     ==>              count_pready <= count_pready + $bits(count_pready)'(1);
94                              end
95                          end
96                          // APB Access Phase - Read with Wait States
97         1/1              else if (!i_pwrite && i_psel) begin
98         1/1                  if (count_pready == $bits(count_pready)'(WAIT_READ-1)) begin                    
99         0/1     ==>              o_pready     <= 1'b1;
100        0/1     ==>              o_prdata     <= (timer_idx < num_timers) ? t_reg[timer_idx] : '0;
101        0/1     ==>              count_pready <= count_pready + $bits(count_pready)'(1);
102                             end 
103        1/1                  else if (count_pready == $bits(count_pready)'(WAIT_READ)) begin
104        1/1                      o_pready <= 1'b0;
105                             end 
106                             else begin
107        0/1     ==>              count_pready <= count_pready + $bits(count_pready)'(1);
108                             end
109                         end
                        MISSING_ELSE

-------------------------------------------------------------------------------
Cond Coverage for Module : APB_Timer

               Total   Covered  Percent
Conditions         34       20    58.82
Logical            34       20    58.82
Non-Logical         0        0
Event               0        0

 LINE       52
 EXPRESSION (i_psel && i_penable && i_pwrite && o_pready)
             ---1--    ----2----    ----3---    ----4---

-1- -2- -3- -4- Status
 0   1   1   1  Not Covered
 1   0   1   1  Not Covered
 1   1   0   1  Covered
 1   1   1   0  Not Covered
 1   1   1   1  Covered

 LINE       70
 EXPRESSION (i_psel && ((!i_penable)))
             ---1--    -------2------

-1- -2- Status
 0   1  Covered
 1   0  Covered
 1   1  Covered

 LINE       72
 EXPRESSION (i_pwrite && (WAIT_WRITE == 0))
             ----1---    --------2--------

-1- -2- Status
 0   -  Covered
 1   -  Covered

 LINE       72
 SUB-EXPRESSION (WAIT_WRITE == 0)
                --------1--------

-1- Status
 0  Not Covered
 1  Covered

 LINE       75
 EXPRESSION (((!i_pwrite)) && (WAIT_READ == 0))
             ------1------    --------2-------

-1- -2- Status
 0   -  Not Covered
 1   -  Covered

 LINE       75
 SUB-EXPRESSION (WAIT_READ == 0)
                --------1-------

-1- Status
 0  Not Covered
 1  Covered

 LINE       77
 EXPRESSION ((timer_idx < num_timers) ? t_reg[timer_idx] : '0)
             ------------1-----------

-1- Status
 0  Covered
 1  Not Covered

 LINE       84
 EXPRESSION (i_pwrite && i_psel)
             ----1---    ---2--

-1- -2- Status
 0   1  Covered
 1   0  Covered
 1   1  Covered

 LINE       85
 EXPRESSION (count_pready == 3'((WAIT_WRITE - 1)))
            -------------------1------------------

-1- Status
 0  Covered
 1  Not Covered

 LINE       89
 EXPRESSION (count_pready == 3'(WAIT_WRITE))
            ----------------1---------------

-1- Status
 0  Not Covered
 1  Covered

 LINE       97
 EXPRESSION (((!i_pwrite)) && i_psel)
             ------1------    ---2--

-1- -2- Status
 0   1  Not Covered
 1   0  Covered
 1   1  Covered

 LINE       98
 EXPRESSION (count_pready == 3'((WAIT_READ - 1)))
            ------------------1------------------

-1- Status
 0  Covered
 1  Not Covered

 LINE       100
 EXPRESSION ((timer_idx < num_timers) ? t_reg[timer_idx] : '0)
             ------------1-----------

-1- Status
 0  Not Covered
 1  Not Covered

 LINE       103
 EXPRESSION (count_pready == 3'(WAIT_READ))
            ---------------1---------------

-1- Status
 0  Not Covered
 1  Covered

-------------------------------------------------------------------------------
Toggle Coverage for Module : APB_Timer
                Total Covered Percent 
Totals          12    6       50.00   
Total Bits      276   103     37.32   
Total Bits 0->1 138   52      37.68   
Total Bits 1->0 138   51      36.96   

                             
Ports          10  6  60.00  
Port Bits      206 89 43.20  
Port Bits 0->1 103 45 43.69  
Port Bits 1->0 103 44 42.72  

                              
Signals          2  0  0.00   
Signal Bits      70 14 20.00  
Signal Bits 0->1 35 7  20.00  
Signal Bits 1->0 35 7  20.00  

Port Details
               Toggle Toggle 1->0 Toggle 0->1 Direction 
i_prstn        No     No          Yes         INPUT     
i_pclk         Yes    Yes         Yes         INPUT     
i_paddr[1:0]   No     No          No          INPUT     
i_paddr[8:2]   Yes    Yes         Yes         INPUT     
i_paddr[31:9]  No     No          No          INPUT     
i_pwrite       Yes    Yes         Yes         INPUT     
i_psel         Yes    Yes         Yes         INPUT     
i_penable      Yes    Yes         Yes         INPUT     
i_pwdata[31:0] Yes    Yes         Yes         INPUT     
o_prdata[31:0] No     No          No          OUTPUT    
o_pready       Yes    Yes         Yes         OUTPUT    
o_pslverr      No     No          No          OUTPUT    

Signal Details
                  Toggle Toggle 1->0 Toggle 0->1 
count_pready[2:0] No     No          No          
timer_idx[6:0]    Yes    Yes         Yes         
timer_idx[31:7]   No     No          No          


-------------------------------------------------------------------------------
Branch Coverage for Module : APB_Timer
         Line No. Total Covered Percent 
Branches          17    9       52.94   
IF       38       4     3       75.00   
IF       64       13    6       46.15   


38             if (!i_prstn) begin
               -1-  
39                 for (int i = 0; i < num_timers; i++) begin
                   ==>
40                     t_reg[i] <= '0;
41                 end
42             end 
43             else begin
44                 // 1. Default Timer Behavior: Decrement if > 0
45                 for (int i = 0; i < num_timers; i++) begin
46                     if (t_reg[i] > 0) begin
47                         t_reg[i] <= t_reg[i] - 1;
48                     end
49                 end
50         
51                 // 2. APB Write: Overrides the decrement if a new value is written
52                 if (i_psel && i_penable && i_pwrite && o_pready) begin
                   -2-  
53                     if (timer_idx < num_timers) begin
                       -3-  
54                         t_reg[timer_idx] <= i_pwdata;
                           ==>
55                     end
                       MISSING_ELSE
                       ==>
56                 end
                   MISSING_ELSE
                   ==>

Branches:

-1- -2- -3- Status      
1   -   -   Covered     
0   1   1   Not Covered 
0   1   0   Covered     
0   0   -   Covered     


64             if (!i_prstn) begin
               -1-  
65                 count_pready <= '0;
                   ==>
66                 o_pready     <= 1'b0;
67                 o_prdata     <= '0;
68             end
69             // APB Setup Phase
70             else if (i_psel && !i_penable) begin
                    -2-  
71                 count_pready <= '0;
72                 if (i_pwrite && WAIT_WRITE == 0) begin         // Write command, no wait states
                   -3-  
73                     o_pready <= 1'b1;
                       ==>
74                 end 
75                 else if (!i_pwrite && WAIT_READ == 0) begin    // Read command, no wait states
                        -4-  
76                     o_pready <= 1'b1;
77                     o_prdata <= (timer_idx < num_timers) ? t_reg[timer_idx] : '0;
                                                            -5-  
                                                            ==>  
                                                            ==>  
78                 end 
79                 else begin
80                     o_pready <= 1'b0;
                       ==>
81                 end
82             end
83             // APB Access Phase - Write with Wait States
84             else if (i_pwrite && i_psel) begin
                    -6-  
85                 if (count_pready == $bits(count_pready)'(WAIT_WRITE-1)) begin
                   -7-  
86                     o_pready     <= 1'b1;
                       ==>
87                     count_pready <= count_pready + $bits(count_pready)'(1);	  
88                 end 
89                 else if (count_pready == $bits(count_pready)'(WAIT_WRITE)) begin
                        -8-  
90                     o_pready <= 1'b0;
                       ==>
91                 end 
92                 else begin
93                     count_pready <= count_pready + $bits(count_pready)'(1);
                       ==>
94                 end
95             end
96             // APB Access Phase - Read with Wait States
97             else if (!i_pwrite && i_psel) begin
                    -9-  
98                 if (count_pready == $bits(count_pready)'(WAIT_READ-1)) begin                    
                   -10-  
99                     o_pready     <= 1'b1;
100                    o_prdata     <= (timer_idx < num_timers) ? t_reg[timer_idx] : '0;
                                                                -11-  
                                                                ==>  
                                                                ==>  
101                    count_pready <= count_pready + $bits(count_pready)'(1);
102                end 
103                else if (count_pready == $bits(count_pready)'(WAIT_READ)) begin
                        -12-  
104                    o_pready <= 1'b0;
                       ==>
105                end 
106                else begin
107                    count_pready <= count_pready + $bits(count_pready)'(1);
                       ==>
108                end
109            end
               MISSING_ELSE
               ==>

Branches:

-1- -2- -3- -4- -5- -6- -7- -8- -9- -10- -11- -12- Status      
1   -   -   -   -   -   -   -   -   -    -    -    Covered     
0   1   1   -   -   -   -   -   -   -    -    -    Covered     
0   1   0   1   1   -   -   -   -   -    -    -    Not Covered 
0   1   0   1   0   -   -   -   -   -    -    -    Covered     
0   1   0   0   -   -   -   -   -   -    -    -    Not Covered 
0   0   -   -   -   1   1   -   -   -    -    -    Not Covered 
0   0   -   -   -   1   0   1   -   -    -    -    Covered     
0   0   -   -   -   1   0   0   -   -    -    -    Not Covered 
0   0   -   -   -   0   -   -   1   1    1    -    Not Covered 
0   0   -   -   -   0   -   -   1   1    0    -    Not Covered 
0   0   -   -   -   0   -   -   1   0    -    1    Covered     
0   0   -   -   -   0   -   -   1   0    -    0    Not Covered 
0   0   -   -   -   0   -   -   0   -    -    -    Covered     


-------------------------------------------------------------------------------
===============================================================================
Module Instance : APB_TOP.apb_sys.timer0
===============================================================================

Instance :

SCORE  LINE   COND   TOGGLE FSM    BRANCH 
 55.33  72.22  58.82  37.32 --      52.94 


Instance's subtree :

SCORE  LINE   COND   TOGGLE FSM    BRANCH 
 55.33  72.22  58.82  37.32 --      52.94 


Module : 

SCORE  LINE   COND   TOGGLE FSM    BRANCH NAME      
 55.33  72.22  58.82  37.32 --      52.94 APB_Timer 


Parent : 

SCORE  LINE   COND   TOGGLE FSM    BRANCH NAME    
100.00 --     100.00 --     --     100.00 apb_sys 


Subtrees :


no children
----------------


-------------------------------------------------------------------------------
Since this is the module's only instance, the coverage report is the same as for the module.
===============================================================================
Module : apb_external_if
===============================================================================
SCORE  LINE   COND   TOGGLE FSM    BRANCH 
 75.24 --     --      75.24 --     --     

Source File(s) : 

/home/marcom/common/Documents/ECE593/FinalM2_3/ece593-apb-verification/apb_verification_MS2-MS3_Class/rtl/APB/APB_IF.sv

Module self-instances :

SCORE  LINE   COND   TOGGLE FSM    BRANCH NAME           
 75.24 --     --      75.24 --     --     APB_TOP.ext_if 



-------------------------------------------------------------------------------
Toggle Coverage for Module : apb_external_if
                Total Covered Percent 
Totals          10    8       80.00   
Total Bits      206   155     75.24   
Total Bits 0->1 103   78      75.73   
Total Bits 1->0 103   77      74.76   

                          
Ports          2 1 50.00  
Port Bits      4 3 75.00  
Port Bits 0->1 2 2 100.00 
Port Bits 1->0 2 1 50.00  

                                
Signals          8   7   87.50  
Signal Bits      202 152 75.25  
Signal Bits 0->1 101 76  75.25  
Signal Bits 1->0 101 76  75.25  

Port Details
      Toggle Toggle 1->0 Toggle 0->1 Direction 
clk   Yes    Yes         Yes         INPUT     
rst_n No     No          Yes         INPUT     

Signal Details
                Toggle Toggle 1->0 Toggle 0->1 
start           Yes    Yes         Yes         
rw              Yes    Yes         Yes         
data_in[31:0]   Yes    Yes         Yes         
addr[1:0]       No     No          No          
addr[8:2]       Yes    Yes         Yes         
addr[31:9]      No     No          No          
data_out[31:0]  Yes    Yes         Yes         
transfer_status Yes    Yes         Yes         
valid           Yes    Yes         Yes         
ready           Yes    Yes         Yes         


-------------------------------------------------------------------------------
===============================================================================
Module Instance : APB_TOP.ext_if
===============================================================================

Instance :

SCORE  LINE   COND   TOGGLE FSM    BRANCH 
 75.24 --     --      75.24 --     --     


Instance's subtree :

SCORE  LINE   COND   TOGGLE FSM    BRANCH 
 75.24 --     --      75.24 --     --     


Module : 

SCORE  LINE   COND   TOGGLE FSM    BRANCH NAME            
 75.24 --     --      75.24 --     --     apb_external_if 


Parent : 

SCORE  LINE   COND   TOGGLE FSM    BRANCH NAME    
 87.50 100.00 --      75.00 --     --     APB_TOP 


Subtrees :


no children
----------------


-------------------------------------------------------------------------------
Since this is the module's only instance, the coverage report is the same as for the module.
===============================================================================
Module : apb_bus_if
===============================================================================
SCORE  LINE   COND   TOGGLE FSM    BRANCH 
 75.71 --     --      75.71 --     --     

Source File(s) : 

/home/marcom/common/Documents/ECE593/FinalM2_3/ece593-apb-verification/apb_verification_MS2-MS3_Class/rtl/APB/APB_IF.sv

Module self-instances :

SCORE  LINE   COND   TOGGLE FSM    BRANCH NAME                   
 75.71 --     --      75.71 --     --     APB_TOP.apb_sys.bus_if 



-------------------------------------------------------------------------------
Toggle Coverage for Module : apb_bus_if
                Total Covered Percent 
Totals          10    8       80.00   
Total Bits      210   159     75.71   
Total Bits 0->1 105   80      76.19   
Total Bits 1->0 105   79      75.24   

                          
Ports          2 1 50.00  
Port Bits      4 3 75.00  
Port Bits 0->1 2 2 100.00 
Port Bits 1->0 2 1 50.00  

                                
Signals          8   7   87.50  
Signal Bits      206 156 75.73  
Signal Bits 0->1 103 78  75.73  
Signal Bits 1->0 103 78  75.73  

Port Details
      Toggle Toggle 1->0 Toggle 0->1 Direction 
clk   Yes    Yes         Yes         INPUT     
rst_n No     No          Yes         INPUT     

Signal Details
             Toggle Toggle 1->0 Toggle 0->1 
paddr[1:0]   No     No          No          
paddr[8:2]   Yes    Yes         Yes         
paddr[31:9]  No     No          No          
pwrite       Yes    Yes         Yes         
psel[2:0]    Yes    Yes         Yes         
penable      Yes    Yes         Yes         
pwdata[31:0] Yes    Yes         Yes         
prdata[31:0] Yes    Yes         Yes         
pready       Yes    Yes         Yes         
pslverr      Yes    Yes         Yes         


-------------------------------------------------------------------------------
===============================================================================
Module Instance : APB_TOP.apb_sys.bus_if
===============================================================================

Instance :

SCORE  LINE   COND   TOGGLE FSM    BRANCH 
 75.71 --     --      75.71 --     --     


Instance's subtree :

SCORE  LINE   COND   TOGGLE FSM    BRANCH 
 75.71 --     --      75.71 --     --     


Module : 

SCORE  LINE   COND   TOGGLE FSM    BRANCH NAME       
 75.71 --     --      75.71 --     --     apb_bus_if 


Parent : 

SCORE  LINE   COND   TOGGLE FSM    BRANCH NAME    
100.00 --     100.00 --     --     100.00 apb_sys 


Subtrees :


no children
----------------


-------------------------------------------------------------------------------
Since this is the module's only instance, the coverage report is the same as for the module.
===============================================================================
Module : APB_Master
===============================================================================
SCORE  LINE   COND   TOGGLE FSM    BRANCH 
 80.81 100.00  84.21  75.95  60.00  83.87 

Source File(s) : 

/home/marcom/common/Documents/ECE593/FinalM2_3/ece593-apb-verification/apb_verification_MS2-MS3_Class/rtl/APB/APB_Master.sv

Module self-instances :

SCORE  LINE   COND   TOGGLE FSM    BRANCH NAME               
 80.81 100.00  84.21  75.95  60.00  83.87 APB_TOP.apb_sys.m0 



-------------------------------------------------------------------------------
Line Coverage for Module : APB_Master

             Line No.   Total   Covered  Percent
TOTAL                       40       40   100.00
ALWAYS             49        3        3   100.00
ALWAYS             56        4        4   100.00
ALWAYS             64       28       28   100.00
ALWAYS            115        5        5   100.00

48                      always @(posedge i_pclk or negedge i_prstn)
49         1/1            if (!i_prstn)
50         1/1              state<=IDLE;
51                        else
52         1/1              state<=next_state; 
53                      
54                      //Calculating next state
55                      always @(*)
56         1/1            case(state)
57         1/1              IDLE: next_state = (i_start) ? SETUP : IDLE;
58         1/1              SETUP: next_state = ACCESS;
59         1/1              ACCESS: next_state = (i_pready) ? ((i_start) ? SETUP : IDLE) : ACCESS;
                   ==>  MISSING_DEFAULT
60                        endcase
61                      
62                      //Generating and sampling APB related signals
63                      always @(posedge i_pclk or negedge i_prstn)
64         1/1            if (!i_prstn) begin
65         1/1              o_paddr<='0; 
66         1/1              o_psel<='0;	  
67         1/1              o_pwrite<=1'b0;
68         1/1              o_penable<=1'b0;
69         1/1              o_pwdata<='0;
70         1/1              o_transfer_status<=1'b0;
71         1/1              o_data_out<='0;
72                        end
73                        else begin
74         1/1              case (state)
75                      
76                          IDLE: begin
77         1/1              if (i_start) begin
78         1/1                o_paddr<=i_addr_in;                                      //Sample the slave address		
79         1/1                o_pwrite<=i_command;                                     //Sample the command, i.e. read/write
80                      
81         1/1                case (i_addr_in[(ADDR_WIDTH-1)-:ADDR_MSB_len])
82         1/1                ADDR_SLAVE_0: o_psel<=3'b001;
83         1/1                ADDR_SLAVE_1: o_psel<=3'b010;
84         1/1                ADDR_SLAVE_2: o_psel<=3'b100;
                   ==>  MISSING_DEFAULT
85                            endcase
86                               
87         1/1                o_pwdata<=(i_command) ? i_data_in : o_pwdata;            //Update the write bus for a write operation
88         1/1                o_penable<=1'b0;                                         //PENABLE signal rises to logic high during the ENABLE phase of the transmission 	
89                          end
90                          else begin
91         1/1                o_psel<='0;
92         1/1                o_penable<=1'b0;  
93                          end
94                          end
95                      
96                          SETUP: 
97         1/1              o_penable<=1'b1;                                           //PENABLE signal rises to logic high during the ENABLE phase of the transmission 
98                      
99                          ACCESS: begin
100        1/1              o_transfer_status<=(i_pready) ? i_pslverr : o_transfer_status;    //Updating the transfer status according to the pslverr signal generated by the slave
101        1/1              if (i_pready) begin                                               //The 'penable' signal goes low when 'pready' is logic high 
102        1/1                o_penable<=1'b0;
103        1/1                if (!i_start)                                                   //The pselx goes low unless the transfer is immidiately followed by another to the same peripheral
104        1/1                  o_psel<='0;
                   ==>  MISSING_ELSE
105        1/1                if (!i_command)                                                 //Update the output date at the end of a read command
106        1/1                  o_data_out<=i_prdata;
                        MISSING_ELSE
107                         end
                        MISSING_ELSE
108                         end
                   ==>  MISSING_DEFAULT
109                     
110                         endcase
111                       end
112                      
113                     //Generate 'o_valid' signal - rises to logic high for one clock cycle after a 'read' transfer
114                     always @(posedge i_pclk or negedge i_prstn)
115        1/1            if (!i_prstn)
116        1/1              o_valid<=1'b0;
117        1/1            else if (|o_psel&o_penable&i_pready&~o_pwrite)                          //'valid' signal is generated for read commands only
118        1/1              o_valid<=1'b1;
119        1/1            else o_valid<=1'b0;

-------------------------------------------------------------------------------
Cond Coverage for Module : APB_Master

               Total   Covered  Percent
Conditions         19       16    84.21
Logical            19       16    84.21
Non-Logical         0        0
Event               0        0

 LINE       57
 EXPRESSION (i_start ? SETUP : IDLE)
             ---1---

-1- Status
 0  Covered
 1  Covered

 LINE       59
 EXPRESSION (i_pready ? (i_start ? SETUP : IDLE) : ACCESS)
             ----1---

-1- Status
 0  Covered
 1  Covered

 LINE       59
 SUB-EXPRESSION (i_start ? SETUP : IDLE)
                 ---1---

-1- Status
 0  Covered
 1  Not Covered

 LINE       87
 EXPRESSION (i_command ? i_data_in : o_pwdata)
             ----1----

-1- Status
 0  Covered
 1  Covered

 LINE       100
 EXPRESSION (i_pready ? i_pslverr : o_transfer_status)
             ----1---

-1- Status
 0  Covered
 1  Covered

 LINE       117
 EXPRESSION (((|o_psel)) & o_penable & i_pready & ((~o_pwrite)))
             -----1-----   ----2----   ----3---   ------4------

-1- -2- -3- -4- Status
 0   1   1   1  Not Covered
 1   0   1   1  Not Covered
 1   1   0   1  Covered
 1   1   1   0  Covered
 1   1   1   1  Covered

 LINE       121
 EXPRESSION ((state == IDLE) ? 1'b1 : 1'b0)
             -------1-------

-1- Status
 0  Covered
 1  Covered

 LINE       121
 SUB-EXPRESSION (state == IDLE)
                -------1-------

-1- Status
 0  Covered
 1  Covered

-------------------------------------------------------------------------------
Toggle Coverage for Module : APB_Master
                Total Covered Percent 
Totals          20    17      85.00   
Total Bits      420   319     75.95   
Total Bits 0->1 210   160     76.19   
Total Bits 1->0 210   159     75.71   

                              
Ports          18  15  83.33  
Port Bits      412 311 75.49  
Port Bits 0->1 206 156 75.73  
Port Bits 1->0 206 155 75.24  

                            
Signals          2 2 100.00 
Signal Bits      8 8 100.00 
Signal Bits 0->1 4 4 100.00 
Signal Bits 1->0 4 4 100.00 

Port Details
                  Toggle Toggle 1->0 Toggle 0->1 Direction 
i_prstn           No     No          Yes         INPUT     
i_pclk            Yes    Yes         Yes         INPUT     
i_command         Yes    Yes         Yes         INPUT     
i_start           Yes    Yes         Yes         INPUT     
i_data_in[31:0]   Yes    Yes         Yes         INPUT     
i_addr_in[1:0]    No     No          No          INPUT     
i_addr_in[8:2]    Yes    Yes         Yes         INPUT     
i_addr_in[31:9]   No     No          No          INPUT     
i_prdata[31:0]    Yes    Yes         Yes         INPUT     
i_pready          Yes    Yes         Yes         INPUT     
i_pslverr         Yes    Yes         Yes         INPUT     
o_paddr[1:0]      No     No          No          OUTPUT    
o_paddr[8:2]      Yes    Yes         Yes         OUTPUT    
o_paddr[31:9]     No     No          No          OUTPUT    
o_pwrite          Yes    Yes         Yes         OUTPUT    
o_psel[2:0]       Yes    Yes         Yes         OUTPUT    
o_penable         Yes    Yes         Yes         OUTPUT    
o_pwdata[31:0]    Yes    Yes         Yes         OUTPUT    
o_data_out[31:0]  Yes    Yes         Yes         OUTPUT    
o_transfer_status Yes    Yes         Yes         OUTPUT    
o_valid           Yes    Yes         Yes         OUTPUT    
o_ready           Yes    Yes         Yes         OUTPUT    

Signal Details
                Toggle Toggle 1->0 Toggle 0->1 
state[1:0]      Yes    Yes         Yes         
next_state[1:0] Yes    Yes         Yes         


-------------------------------------------------------------------------------
FSM Coverage for Module : APB_Master
Summary for FSM :: state
            Total Covered Percent                         
States      3     3       100.00  (Not included in score) 
Transitions 5     3       60.00                           
Sequences   0     0                                       

State, Transition and Sequence Details for FSM :: state
-------------------------------------------------------------------------------
states Line No. Covered 
ACCESS 58       Covered 
IDLE   50       Covered 
SETUP  57       Covered 

transitions   Line No. Covered     
ACCESS->IDLE  50       Covered     
ACCESS->SETUP 59       Not Covered 
IDLE->SETUP   57       Covered     
SETUP->ACCESS 58       Covered     
SETUP->IDLE   50       Not Covered 


-------------------------------------------------------------------------------
Branch Coverage for Module : APB_Master
         Line No. Total Covered Percent 
Branches          31    26      83.87   
TERNARY  121      2     2       100.00  
IF       49       2     2       100.00  
CASE     56       7     5       71.43   
IF       64       17    14      82.35   
IF       115      3     3       100.00  


121         assign o_ready = (state==IDLE) ? 1'b1 : 1'b0;                           //'ready' signal indicates the bus is free to initiate a new trasfer           
                                           -1-  
                                           ==>  
                                           ==>  

Branches:

-1- Status  
1   Covered 
0   Covered 


49           if (!i_prstn)
             -1-  
50             state<=IDLE;
               ==>
51           else
52             state<=next_state; 
               ==>

Branches:

-1- Status  
1   Covered 
0   Covered 


56           case(state)
             -1-  
57             IDLE: next_state = (i_start) ? SETUP : IDLE;
                                            -2-  
                                            ==>  
                                            ==>  
58             SETUP: next_state = ACCESS;
               ==>
59             ACCESS: next_state = (i_pready) ? ((i_start) ? SETUP : IDLE) : ACCESS;
                                               -3-          -4-   
                                                            ==>  
                                               ==>          ==>   
               MISSING_DEFAULT
               ==>

Branches:

-1-             -2- -3- -4- Status      
IDLE            1   -   -   Covered     
IDLE            0   -   -   Covered     
SETUP           -   -   -   Covered     
ACCESS          -   1   1   Not Covered 
ACCESS          -   1   0   Covered     
ACCESS          -   0   -   Covered     
MISSING_DEFAULT -   -   -   Not Covered 


64           if (!i_prstn) begin
             -1-  
65             o_paddr<='0; 
               ==>
66             o_psel<='0;	  
67             o_pwrite<=1'b0;
68             o_penable<=1'b0;
69             o_pwdata<='0;
70             o_transfer_status<=1'b0;
71             o_data_out<='0;
72           end
73           else begin
74             case (state)
               -2-  
75         
76             IDLE: begin
77             if (i_start) begin
               -3-  
78               o_paddr<=i_addr_in;                                      //Sample the slave address		
79               o_pwrite<=i_command;                                     //Sample the command, i.e. read/write
80         
81               case (i_addr_in[(ADDR_WIDTH-1)-:ADDR_MSB_len])
                 -4-  
82               ADDR_SLAVE_0: o_psel<=3'b001;
                 ==>
83               ADDR_SLAVE_1: o_psel<=3'b010;
                 ==>
84               ADDR_SLAVE_2: o_psel<=3'b100;
                 ==>
                 MISSING_DEFAULT
                 ==>
85               endcase
86                  
87               o_pwdata<=(i_command) ? i_data_in : o_pwdata;            //Update the write bus for a write operation
                                       -5-  
                                       ==>  
                                       ==>  
88               o_penable<=1'b0;                                         //PENABLE signal rises to logic high during the ENABLE phase of the transmission 	
89             end
90             else begin
91               o_psel<='0;
                 ==>
92               o_penable<=1'b0;  
93             end
94             end
95         
96             SETUP: 
97             o_penable<=1'b1;                                           //PENABLE signal rises to logic high during the ENABLE phase of the transmission 
               ==>
98         
99             ACCESS: begin
100            o_transfer_status<=(i_pready) ? i_pslverr : o_transfer_status;    //Updating the transfer status according to the pslverr signal generated by the slave
                                             -6-  
                                             ==>  
                                             ==>  
101            if (i_pready) begin                                               //The 'penable' signal goes low when 'pready' is logic high 
               -7-  
102              o_penable<=1'b0;
103              if (!i_start)                                                   //The pselx goes low unless the transfer is immidiately followed by another to the same peripheral
                 -8-  
104                o_psel<='0;
                   ==>
                   MISSING_ELSE
                   ==>
105              if (!i_command)                                                 //Update the output date at the end of a read command
                 -9-  
106                o_data_out<=i_prdata;
                   ==>
                   MISSING_ELSE
                   ==>
107            end
               MISSING_ELSE
               ==>
108            end
               MISSING_DEFAULT
               ==>

Branches:

-1- -2-             -3- -4-             -5- -6- -7- -8- -9- Status      
1   -               -   -               -   -   -   -   -   Covered     
0   IDLE            1   ADDR_SLAVE_0    -   -   -   -   -   Covered     
0   IDLE            1   ADDR_SLAVE_1    -   -   -   -   -   Covered     
0   IDLE            1   ADDR_SLAVE_2    -   -   -   -   -   Covered     
0   IDLE            1   MISSING_DEFAULT -   -   -   -   -   Not Covered 
0   IDLE            1   -               1   -   -   -   -   Covered     
0   IDLE            1   -               0   -   -   -   -   Covered     
0   IDLE            0   -               -   -   -   -   -   Covered     
0   SETUP           -   -               -   -   -   -   -   Covered     
0   ACCESS          -   -               -   1   -   -   -   Covered     
0   ACCESS          -   -               -   0   -   -   -   Covered     
0   ACCESS          -   -               -   -   1   1   -   Covered     
0   ACCESS          -   -               -   -   1   0   -   Not Covered 
0   ACCESS          -   -               -   -   1   -   1   Covered     
0   ACCESS          -   -               -   -   1   -   0   Covered     
0   ACCESS          -   -               -   -   0   -   -   Covered     
0   MISSING_DEFAULT -   -               -   -   -   -   -   Not Covered 


115          if (!i_prstn)
             -1-  
116            o_valid<=1'b0;
               ==>
117          else if (|o_psel&o_penable&i_pready&~o_pwrite)                          //'valid' signal is generated for read commands only
                  -2-  
118            o_valid<=1'b1;
               ==>
119          else o_valid<=1'b0;
             ==>

Branches:

-1- -2- Status  
1   -   Covered 
0   1   Covered 
0   0   Covered 


-------------------------------------------------------------------------------
===============================================================================
Module Instance : APB_TOP.apb_sys.m0
===============================================================================

Instance :

SCORE  LINE   COND   TOGGLE FSM    BRANCH 
 80.81 100.00  84.21  75.95  60.00  83.87 


Instance's subtree :

SCORE  LINE   COND   TOGGLE FSM    BRANCH 
 80.81 100.00  84.21  75.95  60.00  83.87 


Module : 

SCORE  LINE   COND   TOGGLE FSM    BRANCH NAME       
 80.81 100.00  84.21  75.95  60.00  83.87 APB_Master 


Parent : 

SCORE  LINE   COND   TOGGLE FSM    BRANCH NAME    
100.00 --     100.00 --     --     100.00 apb_sys 


Subtrees :


no children
----------------


-------------------------------------------------------------------------------
Since this is the module's only instance, the coverage report is the same as for the module.
===============================================================================
Module : APB_TOP
===============================================================================
SCORE  LINE   COND   TOGGLE FSM    BRANCH 
 87.50 100.00 --      75.00 --     --     

Source File(s) : 

/home/marcom/common/Documents/ECE593/FinalM2_3/ece593-apb-verification/apb_verification_MS2-MS3_Class/CLASS_TB/APB_TOP.sv

Module self-instances :

SCORE  LINE   COND   TOGGLE FSM    BRANCH NAME    
 87.50 100.00 --      75.00 --     --     APB_TOP 



-------------------------------------------------------------------------------
Line Coverage for Module : APB_TOP

             Line No.   Total   Covered  Percent
TOTAL                        9        9   100.00
INITIAL             9        5        5   100.00
INITIAL            16        4        4   100.00

8                           initial begin
9          1/1                  prstn = 0;
10         1/1                  @(posedge pclk)
11         1/1                  prstn = 1; // Release reset
12         2/2                  @(posedge pclk);
13                      
14                          end
15                          initial begin
16         1/1                  pclk = 0;
17         3/3                  forever #5 pclk = ~pclk;

-------------------------------------------------------------------------------
Toggle Coverage for Module : APB_TOP
                Total Covered Percent 
Totals          2     1       50.00   
Total Bits      4     3       75.00   
Total Bits 0->1 2     2       100.00  
Total Bits 1->0 2     1       50.00   

                            
Signals          2 1 50.00  
Signal Bits      4 3 75.00  
Signal Bits 0->1 2 2 100.00 
Signal Bits 1->0 2 1 50.00  

Signal Details
      Toggle Toggle 1->0 Toggle 0->1 
pclk  Yes    Yes         Yes         
prstn No     No          Yes         


-------------------------------------------------------------------------------
===============================================================================
Module Instance : APB_TOP
===============================================================================

Instance :

SCORE  LINE   COND   TOGGLE FSM    BRANCH 
 87.50 100.00 --      75.00 --     --     


Instance's subtree :

SCORE  LINE   COND   TOGGLE FSM    BRANCH 
 76.25  86.67  83.66  72.18  60.00  78.72 


Module : 

SCORE  LINE   COND   TOGGLE FSM    BRANCH NAME    
 87.50 100.00 --      75.00 --     --     APB_TOP 


Parent : 

none
----------------


Subtrees :

SCORE  LINE   COND   TOGGLE FSM    BRANCH NAME    
 76.03  85.71  83.66  72.07  60.00  78.72 apb_sys 
 75.24 --     --      75.24 --     --     ext_if  
100.00 100.00 --     --     --     --     test    



-------------------------------------------------------------------------------
Since this is the module's only instance, the coverage report is the same as for the module.
===============================================================================
Module : APB_Slave
===============================================================================
SCORE  LINE   COND   TOGGLE FSM    BRANCH 
 89.96  90.62  90.46  90.53 --      88.24 

Source File(s) : 

/home/marcom/common/Documents/ECE593/FinalM2_3/ece593-apb-verification/apb_verification_MS2-MS3_Class/rtl/APB/APB_Slave.sv

Module self-instances :

SCORE  LINE   COND   TOGGLE FSM    BRANCH NAME                 
 79.21  81.25  86.05  73.05 --      76.47 APB_TOP.apb_sys.mem1 
 84.84  87.50  94.87  74.65 --      82.35 APB_TOP.apb_sys.mem0 



-------------------------------------------------------------------------------
Line Coverage for Module : APB_Slave

             Line No.   Total   Covered  Percent
TOTAL                       32       29    90.62
ALWAYS             39        5        5   100.00
ALWAYS             48       27       24    88.89

38                      always @(posedge i_pclk or negedge i_prstn)
39         1/1            if (!i_prstn)
40         1/1              mem<='0;
41         1/1            else if ((i_psel)&&(i_penable))
42                          // Only write if it's NOT the last register (making the last reg Read-Only)
43         1/1              if ((i_pwrite)&&(o_pready) && (i_paddr[REG_NUM+WORD_LEN-1:WORD_LEN] != ((1<<REG_NUM)-1)))
44         1/1                mem[i_paddr[REG_NUM+WORD_LEN-1:WORD_LEN]]<=i_pwdata;
                        MISSING_ELSE
                        MISSING_ELSE
45                      
46                      //pready signal generation and o_prdata update for a 'read' command
47                      always @(posedge i_pclk or negedge i_prstn)
48         1/1            if (!i_prstn) begin
49         1/1              count_pready<='0;
50         1/1              o_pready<=1'b0;
51         1/1              o_prdata<='0;
52                        end
53         1/1            else if ((i_psel==1'b1)&&(i_penable==1'b0)) begin
54         1/1              count_pready<='0; 
55         1/1              if ((i_pwrite)&&(WAIT_WRITE=='0)) begin                                //Write commnad and no wait states
56         1/1              o_pready<=1'b1;
57                          end
58         1/1              else if ((~i_pwrite)&&(WAIT_READ=='0)) begin                           //Read commnad and no wait states
59         0/1     ==>        o_pready<=1'b1;
60         0/1     ==>        o_prdata<=mem[i_paddr[REG_NUM+WORD_LEN-1:WORD_LEN]];                 //Updating the o_prdata together with the rising edge of pready
61                          end
62         1/1              else o_pready<=1'b0;
63                        end
64                        
65         1/1            else if ((i_pwrite)&&(i_psel))	                                       //Write commnad with 'WAIT_WRITE' wait states
66         1/1              if (count_pready==$bits(count_pready)'(WAIT_WRITE-1)) begin
67         1/1                o_pready<=1'b1;
68         1/1                count_pready<=count_pready+$bits(count_pready)'(1);	  
69                          end
70         1/1              else if (count_pready==$bits(count_pready)'(WAIT_WRITE))
71         1/1                o_pready<=1'b0;	
72                          else
73         0/1     ==>        count_pready<=count_pready+$bits(count_pready)'(1);
74                      
75         1/1            else if ((~i_pwrite)&&(i_psel))                                          //Read command with 'WAIT_READ' wait states
76         1/1              if (count_pready==$bits(count_pready)'(WAIT_READ-1)) begin                    
77         1/1                o_pready<=1'b1;
78         1/1                o_prdata<=mem[i_paddr[REG_NUM+WORD_LEN-1:WORD_LEN]];                 //Updating the o_prdata with the rising edge of pready
79         1/1                count_pready<=count_pready+$bits(count_pready)'(1);
80                          end
81         1/1              else if (count_pready==$bits(count_pready)'(WAIT_READ))
82         1/1                o_pready<=1'b0;
83                          else
84         1/1                count_pready<=count_pready+$bits(count_pready)'(1);
                        MISSING_ELSE

-------------------------------------------------------------------------------
Cond Coverage for Module : APB_Slave ( parameter DATA_WIDTH=32,ADDR_WIDTH=32,WAIT_WRITE=1,WAIT_READ=2,WAIT_MAX=3,REG_NUM=5,WORD_LEN=2 ) 
Cond Coverage for Module self-instances : 
APB_TOP.apb_sys.mem0
----------------
SCORE  COND   
 84.84  94.87 


               Total   Covered  Percent
Conditions         39       37    94.87
Logical            39       37    94.87
Non-Logical         0        0
Event               0        0

 LINE       41
 EXPRESSION (i_psel && i_penable)
             ---1--    ----2----

-1- -2- Status
 0   1  Covered
 1   0  Covered
 1   1  Covered

 LINE       43
 EXPRESSION (i_pwrite && o_pready && (i_paddr[((REG_NUM + WORD_LEN) - 1):WORD_LEN] != ((1 << REG_NUM) - 1)))
             ----1---    ----2---    -----------------------------------3----------------------------------

-1- -2- -3- Status
 0   1   1  Covered
 1   0   1  Covered
 1   1   0  Covered
 1   1   1  Covered

 LINE       43
 SUB-EXPRESSION (i_paddr[((REG_NUM + WORD_LEN) - 1):WORD_LEN] != ((1 << REG_NUM) - 1))
                -----------------------------------1----------------------------------

-1- Status
 0  Covered
 1  Covered

 LINE       53
 EXPRESSION ((i_psel == 1'b1) && (i_penable == 1'b0))
             --------1-------    ---------2---------

-1- -2- Status
 0   1  Covered
 1   0  Covered
 1   1  Covered

 LINE       53
 SUB-EXPRESSION (i_psel == 1'b1)
                --------1-------

-1- Status
 0  Covered
 1  Covered

 LINE       53
 SUB-EXPRESSION (i_penable == 1'b0)
                ---------1---------

-1- Status
 0  Covered
 1  Covered

 LINE       65
 EXPRESSION (i_pwrite && i_psel)
             ----1---    ---2--

-1- -2- Status
 0   1  Covered
 1   0  Covered
 1   1  Covered

 LINE       66
 EXPRESSION (count_pready == 3'((WAIT_WRITE - 1)))
            -------------------1------------------

-1- Status
 0  Covered
 1  Covered

 LINE       70
 EXPRESSION (count_pready == 3'(WAIT_WRITE))
            ----------------1---------------

-1- Status
 0  Not Covered
 1  Covered

 LINE       75
 EXPRESSION (((~i_pwrite)) && i_psel)
             ------1------    ---2--

-1- -2- Status
 0   1  Not Covered
 1   0  Covered
 1   1  Covered

 LINE       76
 EXPRESSION (count_pready == 3'((WAIT_READ - 1)))
            ------------------1------------------

-1- Status
 0  Covered
 1  Covered

 LINE       81
 EXPRESSION (count_pready == 3'(WAIT_READ))
            ---------------1---------------

-1- Status
 0  Covered
 1  Covered

 LINE       88
 EXPRESSION ((i_psel && i_penable && i_pwrite && (i_paddr[((REG_NUM + WORD_LEN) - 1):WORD_LEN] == ((1 << REG_NUM) - 1))) ? 1'b1 : 1'b0)
             -----------------------------------------------------1-----------------------------------------------------

-1- Status
 0  Covered
 1  Covered

 LINE       88
 SUB-EXPRESSION (i_psel && i_penable && i_pwrite && (i_paddr[((REG_NUM + WORD_LEN) - 1):WORD_LEN] == ((1 << REG_NUM) - 1)))
                 ---1--    ----2----    ----3---    -----------------------------------4----------------------------------

-1- -2- -3- -4- Status
 0   1   1   1  Covered
 1   0   1   1  Covered
 1   1   0   1  Covered
 1   1   1   0  Covered
 1   1   1   1  Covered

 LINE       88
 SUB-EXPRESSION (i_paddr[((REG_NUM + WORD_LEN) - 1):WORD_LEN] == ((1 << REG_NUM) - 1))
                -----------------------------------1----------------------------------

-1- Status
 0  Covered
 1  Covered

-------------------------------------------------------------------------------
Cond Coverage for Module : APB_Slave ( parameter DATA_WIDTH=32,ADDR_WIDTH=32,WAIT_WRITE=0,WAIT_READ=1,WAIT_MAX=3,REG_NUM=5,WORD_LEN=2 ) 
Cond Coverage for Module self-instances : 
APB_TOP.apb_sys.mem1
----------------
SCORE  COND   
 79.21  86.05 


               Total   Covered  Percent
Conditions         43       37    86.05
Logical            43       37    86.05
Non-Logical         0        0
Event               0        0

 LINE       41
 EXPRESSION (i_psel && i_penable)
             ---1--    ----2----

-1- -2- Status
 0   1  Covered
 1   0  Covered
 1   1  Covered

 LINE       43
 EXPRESSION (i_pwrite && o_pready && (i_paddr[((REG_NUM + WORD_LEN) - 1):WORD_LEN] != ((1 << REG_NUM) - 1)))
             ----1---    ----2---    -----------------------------------3----------------------------------

-1- -2- -3- Status
 0   1   1  Covered
 1   0   1  Not Covered
 1   1   0  Covered
 1   1   1  Covered

 LINE       43
 SUB-EXPRESSION (i_paddr[((REG_NUM + WORD_LEN) - 1):WORD_LEN] != ((1 << REG_NUM) - 1))
                -----------------------------------1----------------------------------

-1- Status
 0  Covered
 1  Covered

 LINE       53
 EXPRESSION ((i_psel == 1'b1) && (i_penable == 1'b0))
             --------1-------    ---------2---------

-1- -2- Status
 0   1  Covered
 1   0  Covered
 1   1  Covered

 LINE       53
 SUB-EXPRESSION (i_psel == 1'b1)
                --------1-------

-1- Status
 0  Covered
 1  Covered

 LINE       53
 SUB-EXPRESSION (i_penable == 1'b0)
                ---------1---------

-1- Status
 0  Covered
 1  Covered

 LINE       55
 EXPRESSION (i_pwrite && (WAIT_WRITE == '0))
             ----1---    ---------2--------

-1- -2- Status
 0   -  Covered
 1   -  Covered

 LINE       55
 SUB-EXPRESSION (WAIT_WRITE == '0)
                ---------1--------

-1- Status
 0  Not Covered
 1  Covered

 LINE       65
 EXPRESSION (i_pwrite && i_psel)
             ----1---    ---2--

-1- -2- Status
 0   1  Covered
 1   0  Covered
 1   1  Covered

 LINE       66
 EXPRESSION (count_pready == 3'((WAIT_WRITE - 1)))
            -------------------1------------------

-1- Status
 0  Covered
 1  Not Covered

 LINE       70
 EXPRESSION (count_pready == 3'(WAIT_WRITE))
            ----------------1---------------

-1- Status
 0  Not Covered
 1  Covered

 LINE       75
 EXPRESSION (((~i_pwrite)) && i_psel)
             ------1------    ---2--

-1- -2- Status
 0   1  Not Covered
 1   0  Covered
 1   1  Covered

 LINE       76
 EXPRESSION (count_pready == 3'((WAIT_READ - 1)))
            ------------------1------------------

-1- Status
 0  Covered
 1  Covered

 LINE       81
 EXPRESSION (count_pready == 3'(WAIT_READ))
            ---------------1---------------

-1- Status
 0  Not Covered
 1  Covered

 LINE       88
 EXPRESSION ((i_psel && i_penable && i_pwrite && (i_paddr[((REG_NUM + WORD_LEN) - 1):WORD_LEN] == ((1 << REG_NUM) - 1))) ? 1'b1 : 1'b0)
             -----------------------------------------------------1-----------------------------------------------------

-1- Status
 0  Covered
 1  Covered

 LINE       88
 SUB-EXPRESSION (i_psel && i_penable && i_pwrite && (i_paddr[((REG_NUM + WORD_LEN) - 1):WORD_LEN] == ((1 << REG_NUM) - 1)))
                 ---1--    ----2----    ----3---    -----------------------------------4----------------------------------

-1- -2- -3- -4- Status
 0   1   1   1  Covered
 1   0   1   1  Covered
 1   1   0   1  Covered
 1   1   1   0  Covered
 1   1   1   1  Covered

 LINE       88
 SUB-EXPRESSION (i_paddr[((REG_NUM + WORD_LEN) - 1):WORD_LEN] == ((1 << REG_NUM) - 1))
                -----------------------------------1----------------------------------

-1- Status
 0  Covered
 1  Covered

-------------------------------------------------------------------------------
Toggle Coverage for Module : APB_Slave
                Total Covered Percent 
Totals          12    8       66.67   
Total Bits      2260  2046    90.53   
Total Bits 0->1 1130  1062    93.98   
Total Bits 1->0 1130  984     87.08   

                              
Ports          10  8   80.00  
Port Bits      206 155 75.24  
Port Bits 0->1 103 78  75.73  
Port Bits 1->0 103 77  74.76  

                                  
Signals          2    0    0.00   
Signal Bits      2054 1891 92.06  
Signal Bits 0->1 1027 984  95.81  
Signal Bits 1->0 1027 907  88.32  

Port Details
               Toggle Toggle 1->0 Toggle 0->1 Direction 
i_prstn        No     No          Yes         INPUT     
i_pclk         Yes    Yes         Yes         INPUT     
i_paddr[1:0]   No     No          No          INPUT     
i_paddr[8:2]   Yes    Yes         Yes         INPUT     
i_paddr[31:9]  No     No          No          INPUT     
i_pwrite       Yes    Yes         Yes         INPUT     
i_psel         Yes    Yes         Yes         INPUT     
i_penable      Yes    Yes         Yes         INPUT     
i_pwdata[31:0] Yes    Yes         Yes         INPUT     
o_prdata[31:0] Yes    Yes         Yes         OUTPUT    
o_pready       Yes    Yes         Yes         OUTPUT    
o_pslverr      Yes    Yes         Yes         OUTPUT    

Signal Details
                              Toggle Toggle 1->0 Toggle 0->1 
mem[2:0][31:0]                Yes    Yes         Yes         
mem[3][5:0]                   Yes    Yes         Yes         
mem[3][6]                     No     No          Yes         
mem[3][10:7]                  Yes    Yes         Yes         
mem[3][11]                    No     No          Yes         
mem[3][31:12]                 Yes    Yes         Yes         
mem[4][16:0]                  Yes    Yes         Yes         
mem[4][17]                    No     No          Yes         
mem[4][31:18]                 Yes    Yes         Yes         
mem[5][13:0]                  Yes    Yes         Yes         
mem[5][14]                    No     No          Yes         
mem[5][28:15]                 Yes    Yes         Yes         
mem[5][29]                    No     No          Yes         
mem[5][31:30]                 Yes    Yes         Yes         
mem[6][21:0]                  Yes    Yes         Yes         
mem[6][22]                    No     No          Yes         
mem[6][31:23]                 Yes    Yes         Yes         
mem[7][2]                     No     No          Yes         
mem[7][4]                     No     No          Yes         
mem[7][7:5]                   Yes    Yes         Yes         
mem[7][9]                     No     No          Yes         
mem[7][11]                    No     No          Yes         
mem[7][13]                    Yes    Yes         Yes         
mem[7][16:14]                 No     No          Yes         
mem[7][18:17]                 Yes    Yes         Yes         
mem[7][21:19]                 No     No          Yes         
mem[7][23:22]                 Yes    Yes         Yes         
mem[7][25:24]                 No     No          Yes         
mem[7][27]                    No     No          Yes         
mem[7][30:29]                 No     No          Yes         
mem[7][31]                    Yes    Yes         Yes         
mem[8][5:0]                   Yes    Yes         Yes         
mem[8][6]                     No     No          Yes         
mem[8][29:7]                  Yes    Yes         Yes         
mem[8][30]                    No     No          Yes         
mem[8][31]                    Yes    Yes         Yes         
mem[9][22:0]                  Yes    Yes         Yes         
mem[9][23]                    No     No          Yes         
mem[9][31:24]                 Yes    Yes         Yes         
mem[10][31:0]                 Yes    Yes         Yes         
mem[11][29:0]                 Yes    Yes         Yes         
mem[11][30]                   No     No          Yes         
mem[11][31]                   Yes    Yes         Yes         
mem[12][31:0]                 Yes    Yes         Yes         
mem[13][25:0]                 Yes    Yes         Yes         
mem[13][26]                   No     No          Yes         
mem[13][31:27]                Yes    Yes         Yes         
mem[14][1:0]                  Yes    Yes         Yes         
mem[14][2]                    No     No          Yes         
mem[14][15:3]                 Yes    Yes         Yes         
mem[14][16]                   No     No          Yes         
mem[14][31:17]                Yes    Yes         Yes         
mem[15][31:0]                 Yes    Yes         Yes         
mem[16][6:0]                  Yes    Yes         Yes         
mem[16][7]                    No     No          Yes         
mem[16][15:8]                 Yes    Yes         Yes         
mem[16][30:17]                Yes    Yes         Yes         
mem[16][31]                   No     No          Yes         
mem[17][2:0]                  Yes    Yes         Yes         
mem[17][3]                    No     No          Yes         
mem[17][10:4]                 Yes    Yes         Yes         
mem[17][11]                   No     No          Yes         
mem[17][12]                   Yes    Yes         Yes         
mem[17][14:13]                No     No          Yes         
mem[17][19:15]                Yes    Yes         Yes         
mem[17][20]                   No     No          Yes         
mem[17][22:21]                Yes    Yes         Yes         
mem[17][25:23]                No     No          Yes         
mem[17][31:26]                Yes    Yes         Yes         
mem[18][10:0]                 Yes    Yes         Yes         
mem[18][11]                   No     No          Yes         
mem[18][31:12]                Yes    Yes         Yes         
mem[19][7:0]                  Yes    Yes         Yes         
mem[19][8]                    No     No          Yes         
mem[19][31:9]                 Yes    Yes         Yes         
mem[20][10:0]                 Yes    Yes         Yes         
mem[20][11]                   No     No          Yes         
mem[20][23:12]                Yes    Yes         Yes         
mem[20][24]                   No     No          Yes         
mem[20][25]                   Yes    Yes         Yes         
mem[20][26]                   No     No          Yes         
mem[20][29:27]                Yes    Yes         Yes         
mem[20][30]                   No     No          Yes         
mem[20][31]                   Yes    Yes         Yes         
mem[21][31:0]                 Yes    Yes         Yes         
mem[22][0]                    No     No          Yes         
mem[22][31:1]                 Yes    Yes         Yes         
mem[23][11:0]                 Yes    Yes         Yes         
mem[23][12]                   No     No          Yes         
mem[23][29:13]                Yes    Yes         Yes         
mem[23][30]                   No     No          Yes         
mem[23][31]                   Yes    Yes         Yes         
mem[24][1:0]                  Yes    Yes         Yes         
mem[24][2]                    No     No          Yes         
mem[24][3]                    Yes    Yes         Yes         
mem[24][4]                    No     No          Yes         
mem[24][5]                    Yes    Yes         Yes         
mem[24][6]                    No     No          Yes         
mem[24][7]                    Yes    Yes         Yes         
mem[24][8]                    No     No          Yes         
mem[24][9]                    Yes    Yes         Yes         
mem[24][10]                   No     No          Yes         
mem[24][11]                   Yes    Yes         Yes         
mem[24][12]                   No     No          Yes         
mem[24][13]                   Yes    Yes         Yes         
mem[24][16:14]                No     No          Yes         
mem[24][17]                   Yes    Yes         Yes         
mem[24][18]                   No     No          Yes         
mem[24][19]                   Yes    Yes         Yes         
mem[24][20]                   No     No          Yes         
mem[24][21]                   Yes    Yes         Yes         
mem[24][22]                   No     No          Yes         
mem[24][27:23]                Yes    Yes         Yes         
mem[24][28]                   No     No          Yes         
mem[24][31:29]                Yes    Yes         Yes         
mem[25][4:0]                  Yes    Yes         Yes         
mem[25][6:5]                  No     No          Yes         
mem[25][31:7]                 Yes    Yes         Yes         
mem[26][31:0]                 Yes    Yes         Yes         
mem[27][1:0]                  Yes    Yes         Yes         
mem[27][2]                    No     No          Yes         
mem[27][5:3]                  Yes    Yes         Yes         
mem[27][6]                    No     No          Yes         
mem[27][11:7]                 Yes    Yes         Yes         
mem[27][12]                   No     No          Yes         
mem[27][31:13]                Yes    Yes         Yes         
mem[28][10:0]                 Yes    Yes         Yes         
mem[28][11]                   No     No          Yes         
mem[28][21:12]                Yes    Yes         Yes         
mem[28][22]                   No     No          Yes         
mem[28][31:23]                Yes    Yes         Yes         
mem[29][0]                    No     No          Yes         
mem[29][3:2]                  Yes    Yes         Yes         
mem[29][5:4]                  No     No          Yes         
mem[29][10:6]                 Yes    Yes         Yes         
mem[29][12:11]                No     No          Yes         
mem[29][23:13]                Yes    Yes         Yes         
mem[29][25:24]                No     No          Yes         
mem[29][27:26]                Yes    Yes         Yes         
mem[29][28]                   No     No          Yes         
mem[29][31:29]                Yes    Yes         Yes         
mem[30][12:0]                 Yes    Yes         Yes         
mem[30][13]                   No     No          Yes         
mem[30][27:14]                Yes    Yes         Yes         
mem[30][28]                   No     No          Yes         
mem[30][31:29]                Yes    Yes         Yes         
Other bits of mem[31:0][31:0] No     No          No          
count_pready[1:0]             Yes    Yes         Yes         
count_pready[2]               No     No          No          


-------------------------------------------------------------------------------
Branch Coverage for Module : APB_Slave
         Line No. Total Covered Percent 
Branches          17    15      88.24   
TERNARY  88       2     2       100.00  
IF       39       4     4       100.00  
IF       48       11    9       81.82   


88         assign o_pslverr = (i_psel && i_penable && i_pwrite && (i_paddr[REG_NUM+WORD_LEN-1:WORD_LEN] == ((1<<REG_NUM)-1))) ? 1'b1 : 1'b0;
                                                                                                                              -1-  
                                                                                                                              ==>  
                                                                                                                              ==>  

Branches:

-1- Status  
1   Covered 
0   Covered 


39           if (!i_prstn)
             -1-  
40             mem<='0;
               ==>
41           else if ((i_psel)&&(i_penable))
                  -2-  
42             // Only write if it's NOT the last register (making the last reg Read-Only)
43             if ((i_pwrite)&&(o_pready) && (i_paddr[REG_NUM+WORD_LEN-1:WORD_LEN] != ((1<<REG_NUM)-1)))
               -3-  
               MISSING_ELSE
               ==>
44               mem[i_paddr[REG_NUM+WORD_LEN-1:WORD_LEN]]<=i_pwdata;
                 ==>
                 MISSING_ELSE
                 ==>

Branches:

-1- -2- -3- Status  
1   -   -   Covered 
0   1   1   Covered 
0   1   0   Covered 
0   0   -   Covered 


48           if (!i_prstn) begin
             -1-  
49             count_pready<='0;
               ==>
50             o_pready<=1'b0;
51             o_prdata<='0;
52           end
53           else if ((i_psel==1'b1)&&(i_penable==1'b0)) begin
                  -2-  
54             count_pready<='0; 
55             if ((i_pwrite)&&(WAIT_WRITE=='0)) begin                                //Write commnad and no wait states
               -3-  
56             o_pready<=1'b1;
               ==>
57             end
58             else if ((~i_pwrite)&&(WAIT_READ=='0)) begin                           //Read commnad and no wait states
                    -4-  
59               o_pready<=1'b1;
                 ==>
60               o_prdata<=mem[i_paddr[REG_NUM+WORD_LEN-1:WORD_LEN]];                 //Updating the o_prdata together with the rising edge of pready
61             end
62             else o_pready<=1'b0;
               ==>
63           end
64           
65           else if ((i_pwrite)&&(i_psel))	                                       //Write commnad with 'WAIT_WRITE' wait states
                  -5-  
66             if (count_pready==$bits(count_pready)'(WAIT_WRITE-1)) begin
               -6-  
67               o_pready<=1'b1;
                 ==>
68               count_pready<=count_pready+$bits(count_pready)'(1);	  
69             end
70             else if (count_pready==$bits(count_pready)'(WAIT_WRITE))
                    -7-  
71               o_pready<=1'b0;	
                 ==>
72             else
73               count_pready<=count_pready+$bits(count_pready)'(1);
                 ==>
74         
75           else if ((~i_pwrite)&&(i_psel))                                          //Read command with 'WAIT_READ' wait states
                  -8-  
76             if (count_pready==$bits(count_pready)'(WAIT_READ-1)) begin                    
               -9-  
               MISSING_ELSE
               ==>
77               o_pready<=1'b1;
                 ==>
78               o_prdata<=mem[i_paddr[REG_NUM+WORD_LEN-1:WORD_LEN]];                 //Updating the o_prdata with the rising edge of pready
79               count_pready<=count_pready+$bits(count_pready)'(1);
80             end
81             else if (count_pready==$bits(count_pready)'(WAIT_READ))
                    -10-  
82               o_pready<=1'b0;
                 ==>
83             else
84               count_pready<=count_pready+$bits(count_pready)'(1);
                 ==>

Branches:

-1- -2- -3- -4- -5- -6- -7- -8- -9- -10- Status      
1   -   -   -   -   -   -   -   -   -    Covered     
0   1   1   -   -   -   -   -   -   -    Covered     
0   1   0   1   -   -   -   -   -   -    Not Covered 
0   1   0   0   -   -   -   -   -   -    Covered     
0   0   -   -   1   1   -   -   -   -    Covered     
0   0   -   -   1   0   1   -   -   -    Covered     
0   0   -   -   1   0   0   -   -   -    Not Covered 
0   0   -   -   0   -   -   1   1   -    Covered     
0   0   -   -   0   -   -   1   0   1    Covered     
0   0   -   -   0   -   -   1   0   0    Covered     
0   0   -   -   0   -   -   0   -   -    Covered     


-------------------------------------------------------------------------------
===============================================================================
Module Instance : APB_TOP.apb_sys.mem1
===============================================================================

Instance :

SCORE  LINE   COND   TOGGLE FSM    BRANCH 
 79.21  81.25  86.05  73.05 --      76.47 


Instance's subtree :

SCORE  LINE   COND   TOGGLE FSM    BRANCH 
 79.21  81.25  86.05  73.05 --      76.47 


Module : 

SCORE  LINE   COND   TOGGLE FSM    BRANCH NAME      
 89.96  90.62  90.46  90.53 --      88.24 APB_Slave 


Parent : 

SCORE  LINE   COND   TOGGLE FSM    BRANCH NAME    
100.00 --     100.00 --     --     100.00 apb_sys 


Subtrees :


no children
----------------


-------------------------------------------------------------------------------
Line Coverage for Instance : APB_TOP.apb_sys.mem1

             Line No.   Total   Covered  Percent
TOTAL                       32       26    81.25
ALWAYS             39        5        5   100.00
ALWAYS             48       27       21    77.78

38                      always @(posedge i_pclk or negedge i_prstn)
39         1/1            if (!i_prstn)
40         1/1              mem<='0;
41         1/1            else if ((i_psel)&&(i_penable))
42                          // Only write if it's NOT the last register (making the last reg Read-Only)
43         1/1              if ((i_pwrite)&&(o_pready) && (i_paddr[REG_NUM+WORD_LEN-1:WORD_LEN] != ((1<<REG_NUM)-1)))
44         1/1                mem[i_paddr[REG_NUM+WORD_LEN-1:WORD_LEN]]<=i_pwdata;
                        MISSING_ELSE
                        MISSING_ELSE
45                      
46                      //pready signal generation and o_prdata update for a 'read' command
47                      always @(posedge i_pclk or negedge i_prstn)
48         1/1            if (!i_prstn) begin
49         1/1              count_pready<='0;
50         1/1              o_pready<=1'b0;
51         1/1              o_prdata<='0;
52                        end
53         1/1            else if ((i_psel==1'b1)&&(i_penable==1'b0)) begin
54         1/1              count_pready<='0; 
55         1/1              if ((i_pwrite)&&(WAIT_WRITE=='0)) begin                                //Write commnad and no wait states
56         1/1              o_pready<=1'b1;
57                          end
58         1/1              else if ((~i_pwrite)&&(WAIT_READ=='0)) begin                           //Read commnad and no wait states
59         0/1     ==>        o_pready<=1'b1;
60         0/1     ==>        o_prdata<=mem[i_paddr[REG_NUM+WORD_LEN-1:WORD_LEN]];                 //Updating the o_prdata together with the rising edge of pready
61                          end
62         1/1              else o_pready<=1'b0;
63                        end
64                        
65         1/1            else if ((i_pwrite)&&(i_psel))	                                       //Write commnad with 'WAIT_WRITE' wait states
66         1/1              if (count_pready==$bits(count_pready)'(WAIT_WRITE-1)) begin
67         0/1     ==>        o_pready<=1'b1;
68         0/1     ==>        count_pready<=count_pready+$bits(count_pready)'(1);	  
69                          end
70         1/1              else if (count_pready==$bits(count_pready)'(WAIT_WRITE))
71         1/1                o_pready<=1'b0;	
72                          else
73         0/1     ==>        count_pready<=count_pready+$bits(count_pready)'(1);
74                      
75         1/1            else if ((~i_pwrite)&&(i_psel))                                          //Read command with 'WAIT_READ' wait states
76         1/1              if (count_pready==$bits(count_pready)'(WAIT_READ-1)) begin                    
77         1/1                o_pready<=1'b1;
78         1/1                o_prdata<=mem[i_paddr[REG_NUM+WORD_LEN-1:WORD_LEN]];                 //Updating the o_prdata with the rising edge of pready
79         1/1                count_pready<=count_pready+$bits(count_pready)'(1);
80                          end
81         1/1              else if (count_pready==$bits(count_pready)'(WAIT_READ))
82         1/1                o_pready<=1'b0;
83                          else
84         0/1     ==>        count_pready<=count_pready+$bits(count_pready)'(1);
                        MISSING_ELSE

-------------------------------------------------------------------------------
Cond Coverage for Instance : APB_TOP.apb_sys.mem1

               Total   Covered  Percent
Conditions         43       37    86.05
Logical            43       37    86.05
Non-Logical         0        0
Event               0        0

 LINE       41
 EXPRESSION (i_psel && i_penable)
             ---1--    ----2----

-1- -2- Status
 0   1  Covered
 1   0  Covered
 1   1  Covered

 LINE       43
 EXPRESSION (i_pwrite && o_pready && (i_paddr[((REG_NUM + WORD_LEN) - 1):WORD_LEN] != ((1 << REG_NUM) - 1)))
             ----1---    ----2---    -----------------------------------3----------------------------------

-1- -2- -3- Status
 0   1   1  Covered
 1   0   1  Not Covered
 1   1   0  Covered
 1   1   1  Covered

 LINE       43
 SUB-EXPRESSION (i_paddr[((REG_NUM + WORD_LEN) - 1):WORD_LEN] != ((1 << REG_NUM) - 1))
                -----------------------------------1----------------------------------

-1- Status
 0  Covered
 1  Covered

 LINE       53
 EXPRESSION ((i_psel == 1'b1) && (i_penable == 1'b0))
             --------1-------    ---------2---------

-1- -2- Status
 0   1  Covered
 1   0  Covered
 1   1  Covered

 LINE       53
 SUB-EXPRESSION (i_psel == 1'b1)
                --------1-------

-1- Status
 0  Covered
 1  Covered

 LINE       53
 SUB-EXPRESSION (i_penable == 1'b0)
                ---------1---------

-1- Status
 0  Covered
 1  Covered

 LINE       55
 EXPRESSION (i_pwrite && (WAIT_WRITE == '0))
             ----1---    ---------2--------

-1- -2- Status
 0   -  Covered
 1   -  Covered

 LINE       55
 SUB-EXPRESSION (WAIT_WRITE == '0)
                ---------1--------

-1- Status
 0  Not Covered
 1  Covered

 LINE       65
 EXPRESSION (i_pwrite && i_psel)
             ----1---    ---2--

-1- -2- Status
 0   1  Covered
 1   0  Covered
 1   1  Covered

 LINE       66
 EXPRESSION (count_pready == 3'((WAIT_WRITE - 1)))
            -------------------1------------------

-1- Status
 0  Covered
 1  Not Covered

 LINE       70
 EXPRESSION (count_pready == 3'(WAIT_WRITE))
            ----------------1---------------

-1- Status
 0  Not Covered
 1  Covered

 LINE       75
 EXPRESSION (((~i_pwrite)) && i_psel)
             ------1------    ---2--

-1- -2- Status
 0   1  Not Covered
 1   0  Covered
 1   1  Covered

 LINE       76
 EXPRESSION (count_pready == 3'((WAIT_READ - 1)))
            ------------------1------------------

-1- Status
 0  Covered
 1  Covered

 LINE       81
 EXPRESSION (count_pready == 3'(WAIT_READ))
            ---------------1---------------

-1- Status
 0  Not Covered
 1  Covered

 LINE       88
 EXPRESSION ((i_psel && i_penable && i_pwrite && (i_paddr[((REG_NUM + WORD_LEN) - 1):WORD_LEN] == ((1 << REG_NUM) - 1))) ? 1'b1 : 1'b0)
             -----------------------------------------------------1-----------------------------------------------------

-1- Status
 0  Covered
 1  Covered

 LINE       88
 SUB-EXPRESSION (i_psel && i_penable && i_pwrite && (i_paddr[((REG_NUM + WORD_LEN) - 1):WORD_LEN] == ((1 << REG_NUM) - 1)))
                 ---1--    ----2----    ----3---    -----------------------------------4----------------------------------

-1- -2- -3- -4- Status
 0   1   1   1  Covered
 1   0   1   1  Covered
 1   1   0   1  Covered
 1   1   1   0  Covered
 1   1   1   1  Covered

 LINE       88
 SUB-EXPRESSION (i_paddr[((REG_NUM + WORD_LEN) - 1):WORD_LEN] == ((1 << REG_NUM) - 1))
                -----------------------------------1----------------------------------

-1- Status
 0  Covered
 1  Covered

-------------------------------------------------------------------------------
Toggle Coverage for Instance : APB_TOP.apb_sys.mem1
                Total Covered Percent 
Totals          12    8       66.67   
Total Bits      2260  1651    73.05   
Total Bits 0->1 1130  928     82.12   
Total Bits 1->0 1130  723     63.98   

                              
Ports          10  8   80.00  
Port Bits      206 155 75.24  
Port Bits 0->1 103 78  75.73  
Port Bits 1->0 103 77  74.76  

                                  
Signals          2    0    0.00   
Signal Bits      2054 1496 72.83  
Signal Bits 0->1 1027 850  82.77  
Signal Bits 1->0 1027 646  62.90  

Port Details
               Toggle Toggle 1->0 Toggle 0->1 Direction 
i_prstn        No     No          Yes         INPUT     
i_pclk         Yes    Yes         Yes         INPUT     
i_paddr[1:0]   No     No          No          INPUT     
i_paddr[8:2]   Yes    Yes         Yes         INPUT     
i_paddr[31:9]  No     No          No          INPUT     
i_pwrite       Yes    Yes         Yes         INPUT     
i_psel         Yes    Yes         Yes         INPUT     
i_penable      Yes    Yes         Yes         INPUT     
i_pwdata[31:0] Yes    Yes         Yes         INPUT     
o_prdata[31:0] Yes    Yes         Yes         OUTPUT    
o_pready       Yes    Yes         Yes         OUTPUT    
o_pslverr      Yes    Yes         Yes         OUTPUT    

Signal Details
                              Toggle Toggle 1->0 Toggle 0->1 
mem[0][31:0]                  Yes    Yes         Yes         
mem[1][7:0]                   Yes    Yes         Yes         
mem[1][8]                     No     No          Yes         
mem[1][9]                     Yes    Yes         Yes         
mem[1][10]                    No     No          Yes         
mem[1][17:11]                 Yes    Yes         Yes         
mem[1][18]                    No     No          Yes         
mem[1][19]                    Yes    Yes         Yes         
mem[1][20]                    No     No          Yes         
mem[1][31:21]                 Yes    Yes         Yes         
mem[2][0]                     No     No          Yes         
mem[2][1]                     Yes    Yes         Yes         
mem[2][10:3]                  Yes    Yes         Yes         
mem[2][11]                    No     No          Yes         
mem[2][12]                    Yes    Yes         Yes         
mem[2][13]                    No     No          Yes         
mem[2][16:14]                 Yes    Yes         Yes         
mem[2][17]                    No     No          Yes         
mem[2][19]                    No     No          Yes         
mem[2][21]                    No     No          Yes         
mem[2][22]                    Yes    Yes         Yes         
mem[2][23]                    No     No          Yes         
mem[2][26:24]                 Yes    Yes         Yes         
mem[2][27]                    No     No          Yes         
mem[2][29]                    No     No          Yes         
mem[2][31:30]                 Yes    Yes         Yes         
mem[3][5:0]                   Yes    Yes         Yes         
mem[3][6]                     No     No          Yes         
mem[3][10:8]                  Yes    Yes         Yes         
mem[3][11]                    No     No          Yes         
mem[3][31:12]                 Yes    Yes         Yes         
mem[4][0]                     No     No          Yes         
mem[4][5:1]                   Yes    Yes         Yes         
mem[4][6]                     No     No          Yes         
mem[4][8:7]                   Yes    Yes         Yes         
mem[4][9]                     No     No          Yes         
mem[4][11:10]                 Yes    Yes         Yes         
mem[4][12]                    No     No          Yes         
mem[4][16:13]                 Yes    Yes         Yes         
mem[4][17]                    No     No          Yes         
mem[4][21:18]                 Yes    Yes         Yes         
mem[4][22]                    No     No          Yes         
mem[4][23]                    Yes    Yes         Yes         
mem[4][24]                    No     No          Yes         
mem[4][31:25]                 Yes    Yes         Yes         
mem[5][3:0]                   Yes    Yes         Yes         
mem[5][5:4]                   No     No          Yes         
mem[5][9:6]                   Yes    Yes         Yes         
mem[5][10]                    No     No          Yes         
mem[5][13:11]                 Yes    Yes         Yes         
mem[5][15:14]                 No     No          Yes         
mem[5][17:16]                 Yes    Yes         Yes         
mem[5][19:18]                 No     No          Yes         
mem[5][21:20]                 Yes    Yes         Yes         
mem[5][22]                    No     No          Yes         
mem[5][23]                    Yes    Yes         Yes         
mem[5][24]                    No     No          Yes         
mem[5][25]                    Yes    Yes         Yes         
mem[5][26]                    No     No          Yes         
mem[5][27]                    Yes    Yes         Yes         
mem[5][29:28]                 No     No          Yes         
mem[5][31:30]                 Yes    Yes         Yes         
mem[6][21:0]                  Yes    Yes         Yes         
mem[6][31:23]                 Yes    Yes         Yes         
mem[8][5:0]                   Yes    Yes         Yes         
mem[8][6]                     No     No          Yes         
mem[8][29:7]                  Yes    Yes         Yes         
mem[8][30]                    No     No          Yes         
mem[8][31]                    Yes    Yes         Yes         
mem[9][2:0]                   Yes    Yes         Yes         
mem[9][17:4]                  Yes    Yes         Yes         
mem[9][18]                    No     No          Yes         
mem[9][22:19]                 Yes    Yes         Yes         
mem[9][23]                    No     No          Yes         
mem[9][31:24]                 Yes    Yes         Yes         
mem[10][6:0]                  Yes    Yes         Yes         
mem[10][8]                    Yes    Yes         Yes         
mem[10][9]                    No     No          Yes         
mem[10][10]                   Yes    Yes         Yes         
mem[10][11]                   No     No          Yes         
mem[10][13:12]                Yes    Yes         Yes         
mem[10][15]                   Yes    Yes         Yes         
mem[10][17]                   Yes    Yes         Yes         
mem[10][18]                   No     No          Yes         
mem[10][19]                   Yes    Yes         Yes         
mem[10][22:21]                Yes    Yes         Yes         
mem[10][23]                   No     No          Yes         
mem[10][25:24]                Yes    Yes         Yes         
mem[10][26]                   No     No          Yes         
mem[10][28]                   Yes    Yes         Yes         
mem[10][29]                   No     No          Yes         
mem[10][31:30]                Yes    Yes         Yes         
mem[11][2:0]                  Yes    Yes         Yes         
mem[11][4:3]                  No     No          Yes         
mem[11][5]                    Yes    Yes         Yes         
mem[11][6]                    No     No          Yes         
mem[11][9:7]                  Yes    Yes         Yes         
mem[11][10]                   No     No          Yes         
mem[11][11]                   Yes    Yes         Yes         
mem[11][12]                   No     No          Yes         
mem[11][13]                   Yes    Yes         Yes         
mem[11][15]                   Yes    Yes         Yes         
mem[11][16]                   No     No          Yes         
mem[11][17]                   Yes    Yes         Yes         
mem[11][21:19]                No     No          Yes         
mem[11][23]                   Yes    Yes         Yes         
mem[11][24]                   No     No          Yes         
mem[11][25]                   Yes    Yes         Yes         
mem[11][26]                   No     No          Yes         
mem[11][27]                   Yes    Yes         Yes         
mem[11][28]                   No     No          Yes         
mem[11][29]                   Yes    Yes         Yes         
mem[11][30]                   No     No          Yes         
mem[11][31]                   Yes    Yes         Yes         
mem[12][2:0]                  Yes    Yes         Yes         
mem[12][3]                    No     No          Yes         
mem[12][31:4]                 Yes    Yes         Yes         
mem[13][4:0]                  Yes    Yes         Yes         
mem[13][5]                    No     No          Yes         
mem[13][18:6]                 Yes    Yes         Yes         
mem[13][20:19]                No     No          Yes         
mem[13][25:21]                Yes    Yes         Yes         
mem[13][26]                   No     No          Yes         
mem[13][31:27]                Yes    Yes         Yes         
mem[14][1:0]                  Yes    Yes         Yes         
mem[14][2]                    No     No          Yes         
mem[14][3]                    Yes    Yes         Yes         
mem[14][4]                    No     No          Yes         
mem[14][7:5]                  Yes    Yes         Yes         
mem[14][8]                    No     No          Yes         
mem[14][11:9]                 Yes    Yes         Yes         
mem[14][12]                   No     No          Yes         
mem[14][13]                   Yes    Yes         Yes         
mem[14][14]                   No     No          Yes         
mem[14][15]                   Yes    Yes         Yes         
mem[14][16]                   No     No          Yes         
mem[14][19:17]                Yes    Yes         Yes         
mem[14][20]                   No     No          Yes         
mem[14][23:21]                Yes    Yes         Yes         
mem[14][24]                   No     No          Yes         
mem[14][25]                   Yes    Yes         Yes         
mem[14][26]                   No     No          Yes         
mem[14][31:27]                Yes    Yes         Yes         
mem[16][1:0]                  No     No          Yes         
mem[16][5]                    No     No          Yes         
mem[16][7]                    No     No          Yes         
mem[16][11:9]                 No     No          Yes         
mem[16][15:13]                No     No          Yes         
mem[16][17]                   No     No          Yes         
mem[16][20:19]                No     No          Yes         
mem[16][23]                   No     No          Yes         
mem[16][27:26]                No     No          Yes         
mem[16][30:29]                No     No          Yes         
mem[17][0]                    Yes    Yes         Yes         
mem[17][1]                    No     No          Yes         
mem[17][2]                    Yes    Yes         Yes         
mem[17][4:3]                  No     No          Yes         
mem[17][5]                    Yes    Yes         Yes         
mem[17][6]                    No     No          Yes         
mem[17][10:7]                 Yes    Yes         Yes         
mem[17][11]                   No     No          Yes         
mem[17][12]                   Yes    Yes         Yes         
mem[17][14:13]                No     No          Yes         
mem[17][17:15]                Yes    Yes         Yes         
mem[17][18]                   No     No          Yes         
mem[17][19]                   Yes    Yes         Yes         
mem[17][20]                   No     No          Yes         
mem[17][22:21]                Yes    Yes         Yes         
mem[17][25:23]                No     No          Yes         
mem[17][31:26]                Yes    Yes         Yes         
mem[18][1:0]                  Yes    Yes         Yes         
mem[18][2]                    No     No          Yes         
mem[18][10:3]                 Yes    Yes         Yes         
mem[18][11]                   No     No          Yes         
mem[18][14:12]                Yes    Yes         Yes         
mem[18][15]                   No     No          Yes         
mem[18][30:16]                Yes    Yes         Yes         
mem[18][31]                   No     No          Yes         
mem[19][0]                    No     No          Yes         
mem[19][1]                    Yes    Yes         Yes         
mem[19][2]                    No     No          Yes         
mem[19][3]                    Yes    Yes         Yes         
mem[19][4]                    No     No          Yes         
mem[19][5]                    Yes    Yes         Yes         
mem[19][10:7]                 No     No          Yes         
mem[19][15:13]                No     No          Yes         
mem[19][17:16]                Yes    Yes         Yes         
mem[19][18]                   No     No          Yes         
mem[19][23:20]                Yes    Yes         Yes         
mem[19][25:24]                No     No          Yes         
mem[19][26]                   Yes    Yes         Yes         
mem[19][27]                   No     No          Yes         
mem[19][28]                   Yes    Yes         Yes         
mem[19][29]                   No     No          Yes         
mem[19][31:30]                Yes    Yes         Yes         
mem[20][10:0]                 Yes    Yes         Yes         
mem[20][11]                   No     No          Yes         
mem[20][22:12]                Yes    Yes         Yes         
mem[20][24:23]                No     No          Yes         
mem[20][25]                   Yes    Yes         Yes         
mem[20][27:26]                No     No          Yes         
mem[20][29:28]                Yes    Yes         Yes         
mem[20][30]                   No     No          Yes         
mem[20][31]                   Yes    Yes         Yes         
mem[22][0]                    No     No          Yes         
mem[22][29:1]                 Yes    Yes         Yes         
mem[22][30]                   No     No          Yes         
mem[22][31]                   Yes    Yes         Yes         
mem[23][4:0]                  Yes    Yes         Yes         
mem[23][5]                    No     No          Yes         
mem[23][6]                    Yes    Yes         Yes         
mem[23][7]                    No     No          Yes         
mem[23][11:8]                 Yes    Yes         Yes         
mem[23][12]                   No     No          Yes         
mem[23][18:13]                Yes    Yes         Yes         
mem[23][20:19]                No     No          Yes         
mem[23][24:21]                Yes    Yes         Yes         
mem[23][25]                   No     No          Yes         
mem[23][29:26]                Yes    Yes         Yes         
mem[23][30]                   No     No          Yes         
mem[23][31]                   Yes    Yes         Yes         
mem[24][2:0]                  No     No          Yes         
mem[24][3]                    Yes    Yes         Yes         
mem[24][10:4]                 No     No          Yes         
mem[24][11]                   Yes    Yes         Yes         
mem[24][12]                   No     No          Yes         
mem[24][13]                   Yes    Yes         Yes         
mem[24][20:14]                No     No          Yes         
mem[24][21]                   Yes    Yes         Yes         
mem[24][26:22]                No     No          Yes         
mem[24][27]                   Yes    Yes         Yes         
mem[24][30:28]                No     No          Yes         
mem[24][31]                   Yes    Yes         Yes         
mem[25][3:0]                  Yes    Yes         Yes         
mem[25][4]                    No     No          Yes         
mem[25][6]                    No     No          Yes         
mem[25][11:7]                 Yes    Yes         Yes         
mem[25][12]                   No     No          Yes         
mem[25][13]                   Yes    Yes         Yes         
mem[25][14]                   No     No          Yes         
mem[25][19:15]                Yes    Yes         Yes         
mem[25][20]                   No     No          Yes         
mem[25][21]                   Yes    Yes         Yes         
mem[25][22]                   No     No          Yes         
mem[25][31:23]                Yes    Yes         Yes         
mem[26][12:0]                 Yes    Yes         Yes         
mem[26][13]                   No     No          Yes         
mem[26][16:14]                Yes    Yes         Yes         
mem[26][17]                   No     No          Yes         
mem[26][31:18]                Yes    Yes         Yes         
mem[27][1:0]                  Yes    Yes         Yes         
mem[27][2]                    No     No          Yes         
mem[27][4:3]                  Yes    Yes         Yes         
mem[27][6]                    No     No          Yes         
mem[27][8]                    Yes    Yes         Yes         
mem[27][9]                    No     No          Yes         
mem[27][10]                   Yes    Yes         Yes         
mem[27][11]                   No     No          Yes         
mem[27][18:15]                No     No          Yes         
mem[27][19]                   Yes    Yes         Yes         
mem[27][21:20]                No     No          Yes         
mem[27][22]                   Yes    Yes         Yes         
mem[27][25:23]                No     No          Yes         
mem[27][26]                   Yes    Yes         Yes         
mem[27][31:27]                No     No          Yes         
mem[28][10:0]                 Yes    Yes         Yes         
mem[28][11]                   No     No          Yes         
mem[28][21:12]                Yes    Yes         Yes         
mem[28][22]                   No     No          Yes         
mem[28][31:23]                Yes    Yes         Yes         
mem[29][0]                    No     No          Yes         
mem[29][3:2]                  Yes    Yes         Yes         
mem[29][4]                    No     No          Yes         
mem[29][6]                    No     No          Yes         
mem[29][10:7]                 Yes    Yes         Yes         
mem[29][12]                   No     No          Yes         
mem[29][17:13]                Yes    Yes         Yes         
mem[29][18]                   No     No          Yes         
mem[29][19]                   Yes    Yes         Yes         
mem[29][20]                   No     No          Yes         
mem[29][21]                   Yes    Yes         Yes         
mem[29][22]                   No     No          Yes         
mem[29][23]                   Yes    Yes         Yes         
mem[29][24]                   No     No          Yes         
mem[29][27:26]                Yes    Yes         Yes         
mem[29][28]                   No     No          Yes         
mem[29][30]                   No     No          Yes         
mem[29][31]                   Yes    Yes         Yes         
mem[30][5:0]                  Yes    Yes         Yes         
mem[30][6]                    No     No          Yes         
mem[30][8:7]                  Yes    Yes         Yes         
mem[30][10]                   Yes    Yes         Yes         
mem[30][12]                   Yes    Yes         Yes         
mem[30][17:14]                Yes    Yes         Yes         
mem[30][18]                   No     No          Yes         
mem[30][19]                   Yes    Yes         Yes         
mem[30][20]                   No     No          Yes         
mem[30][23:21]                Yes    Yes         Yes         
mem[30][24]                   No     No          Yes         
mem[30][27:25]                Yes    Yes         Yes         
mem[30][28]                   No     No          Yes         
mem[30][31:29]                Yes    Yes         Yes         
Other bits of mem[31:0][31:0] No     No          No          
count_pready[0]               Yes    Yes         Yes         
count_pready[2:1]             No     No          No          


-------------------------------------------------------------------------------
Branch Coverage for Instance : APB_TOP.apb_sys.mem1
         Line No. Total Covered Percent 
Branches          17    13      76.47   
TERNARY  88       2     2       100.00  
IF       39       4     4       100.00  
IF       48       11    7       63.64   


88         assign o_pslverr = (i_psel && i_penable && i_pwrite && (i_paddr[REG_NUM+WORD_LEN-1:WORD_LEN] == ((1<<REG_NUM)-1))) ? 1'b1 : 1'b0;
                                                                                                                              -1-  
                                                                                                                              ==>  
                                                                                                                              ==>  

Branches:

-1- Status  
1   Covered 
0   Covered 


39           if (!i_prstn)
             -1-  
40             mem<='0;
               ==>
41           else if ((i_psel)&&(i_penable))
                  -2-  
42             // Only write if it's NOT the last register (making the last reg Read-Only)
43             if ((i_pwrite)&&(o_pready) && (i_paddr[REG_NUM+WORD_LEN-1:WORD_LEN] != ((1<<REG_NUM)-1)))
               -3-  
               MISSING_ELSE
               ==>
44               mem[i_paddr[REG_NUM+WORD_LEN-1:WORD_LEN]]<=i_pwdata;
                 ==>
                 MISSING_ELSE
                 ==>

Branches:

-1- -2- -3- Status  
1   -   -   Covered 
0   1   1   Covered 
0   1   0   Covered 
0   0   -   Covered 


48           if (!i_prstn) begin
             -1-  
49             count_pready<='0;
               ==>
50             o_pready<=1'b0;
51             o_prdata<='0;
52           end
53           else if ((i_psel==1'b1)&&(i_penable==1'b0)) begin
                  -2-  
54             count_pready<='0; 
55             if ((i_pwrite)&&(WAIT_WRITE=='0)) begin                                //Write commnad and no wait states
               -3-  
56             o_pready<=1'b1;
               ==>
57             end
