UVM_INFO @ 0: uvm_test_top.env.agnt.drv [APB_DRV] Resetting DUT
UVM_INFO @ 25: uvm_test_top.env.agnt.drv [APB_DRV] Reset sequence complete.
UVM_INFO @ 25: uvm_test_top.env.agnt.drv [APB_DRV] Running stimulus loop
UVM_INFO @ 25: uvm_test_top.env.agnt.drv [APB_DRV] TX#1  READ / SLAVE=1 REG=10 ADDR=0x000000a8         
UVM_INFO @ 35: uvm_test_top.env.agnt.mon [APB_MON_IN] 
TX#1
  Type:  READ
  Slave: 1
  Reg: 10
  Addr: 0x000000a8
  Data: N/A
  Illegal: 0
UVM_INFO @ 75: uvm_test_top.env.agnt.mon [APB_MON_OUT] 
TX#1
  Type:  READ
  Slave: 1
  Reg: 10
  Addr: 0x000000a8
  Data: 0x00000000
  Valid: 1
  Transfer Status: 0
UVM_INFO @ 75: uvm_test_top.env.agnt.drv [APB_DRV] TX#2  READ / SLAVE=2 REG=2 ADDR=0x00000108         
UVM_INFO @ 85: uvm_test_top.env.agnt.mon [APB_MON_IN] 
TX#2
  Type:  READ
  Slave: 2
  Reg: 2
  Addr: 0x00000108
  Data: N/A
  Illegal: 0
UVM_INFO @ 125: uvm_test_top.env.agnt.mon [APB_MON_OUT] 
TX#2
  Type:  READ
  Slave: 2
  Reg: 2
  Addr: 0x00000108
  Data: 0x00000000
  Valid: 1
  Transfer Status: 0
UVM_INFO @ 125: uvm_test_top.env.agnt.drv [APB_DRV] TX#3 WRITE / SLAVE=1 REG=31 ADDR=0x000000fc DATA_IN=0x00000000
UVM_INFO @ 135: uvm_test_top.env.agnt.mon [APB_MON_IN] 
TX#3
  Type: WRITE
  Slave: 1
  Reg: 31
  Addr: 0x000000fc
  Data: 0x00000000
  Illegal: 0
UVM_INFO @ 175: uvm_test_top.env.agnt.mon [APB_MON_OUT] 
TX#3
  Type: WRITE
  Slave: 1
  Reg: 31
  Addr: 0x000000fc
  Data: N/A
  Valid: 0
  Transfer Status: 0
UVM_INFO @ 175: uvm_test_top.env.agnt.drv [APB_DRV] TX#4  READ / SLAVE=2 REG=3 ADDR=0x0000010c         
UVM_INFO @ 185: uvm_test_top.env.agnt.mon [APB_MON_IN] 
TX#4
  Type:  READ
  Slave: 2
  Reg: 3
  Addr: 0x0000010c
  Data: N/A
  Illegal: 0
UVM_INFO @ 225: uvm_test_top.env.agnt.mon [APB_MON_OUT] 
TX#4
  Type:  READ
  Slave: 2
  Reg: 3
  Addr: 0x0000010c
  Data: 0x00000000
  Valid: 1
  Transfer Status: 0
UVM_INFO @ 225: uvm_test_top.env.agnt.drv [APB_DRV] TX#5  READ / SLAVE=2 REG=4 ADDR=0x00000110         
UVM_INFO @ 235: uvm_test_top.env.agnt.mon [APB_MON_IN] 
TX#5
  Type:  READ
  Slave: 2
  Reg: 4
  Addr: 0x00000110
  Data: N/A
  Illegal: 0
UVM_INFO @ 275: uvm_test_top.env.agnt.mon [APB_MON_OUT] 
TX#5
  Type:  READ
  Slave: 2
  Reg: 4
  Addr: 0x00000110
  Data: 0x00000000
  Valid: 1
  Transfer Status: 0
UVM_INFO @ 275: uvm_test_top.env.agnt.drv [APB_DRV] TX#6  READ / SLAVE=1 REG=0 ADDR=0x00000080         
UVM_INFO @ 285: uvm_test_top.env.agnt.mon [APB_MON_IN] 
TX#6
  Type:  READ
  Slave: 1
  Reg: 0
  Addr: 0x00000080
  Data: N/A
  Illegal: 0
UVM_INFO @ 325: uvm_test_top.env.agnt.mon [APB_MON_OUT] 
TX#6
  Type:  READ
  Slave: 1
  Reg: 0
  Addr: 0x00000080
  Data: 0x00000000
  Valid: 1
  Transfer Status: 0
UVM_INFO @ 325: uvm_test_top.env.agnt.drv [APB_DRV] TX#7 WRITE / SLAVE=0 REG=4 ADDR=0x00000010 DATA_IN=0x64326e0b
UVM_INFO @ 335: uvm_test_top.env.agnt.mon [APB_MON_IN] 
TX#7
  Type: WRITE
  Slave: 0
  Reg: 4
  Addr: 0x00000010
  Data: 0x64326e0b
  Illegal: 0
UVM_INFO @ 375: uvm_test_top.env.agnt.mon [APB_MON_OUT] 
TX#7
  Type: WRITE
  Slave: 0
  Reg: 4
  Addr: 0x00000010
  Data: N/A
  Valid: 0
  Transfer Status: 0
UVM_INFO @ 375: uvm_test_top.env.agnt.drv [APB_DRV] TX#8  READ / SLAVE=0 REG=1 ADDR=0x00000004         
UVM_INFO @ 385: uvm_test_top.env.agnt.mon [APB_MON_IN] 
TX#8
  Type:  READ
  Slave: 0
  Reg: 1
  Addr: 0x00000004
  Data: N/A
  Illegal: 0
UVM_INFO @ 425: uvm_test_top.env.agnt.mon [APB_MON_OUT] 
TX#8
  Type:  READ
  Slave: 0
  Reg: 1
  Addr: 0x00000004
  Data: 0x00000000
  Valid: 1
  Transfer Status: 0
UVM_INFO @ 425: uvm_test_top.env.agnt.drv [APB_DRV] TX#9 WRITE / SLAVE=2 REG=4 ADDR=0x00000110 DATA_IN=0xbd52556e
UVM_INFO @ 435: uvm_test_top.env.agnt.mon [APB_MON_IN] 
TX#9
  Type: WRITE
  Slave: 2
  Reg: 4
  Addr: 0x00000110
  Data: 0xbd52556e
  Illegal: 0
UVM_INFO @ 475: uvm_test_top.env.agnt.mon [APB_MON_OUT] 
TX#9
  Type: WRITE
  Slave: 2
  Reg: 4
  Addr: 0x00000110
  Data: N/A
  Valid: 0
  Transfer Status: 0
UVM_INFO @ 475: uvm_test_top.env.agnt.drv [APB_DRV] TX#10 WRITE / SLAVE=1 REG=1 ADDR=0x00000084 DATA_IN=0x00000000
UVM_INFO @ 485: uvm_test_top.env.agnt.mon [APB_MON_IN] 
TX#10
  Type: WRITE
  Slave: 1
  Reg: 1
  Addr: 0x00000084
  Data: 0x00000000
  Illegal: 0
UVM_INFO @ 525: uvm_test_top.env.agnt.mon [APB_MON_OUT] 
TX#10
  Type: WRITE
  Slave: 1
  Reg: 1
  Addr: 0x00000084
  Data: N/A
  Valid: 0
  Transfer Status: 0
UVM_INFO @ 525: uvm_test_top.env.agnt.drv [APB_DRV] TX#11  READ / SLAVE=1 REG=0 ADDR=0x00000080         
UVM_INFO @ 535: uvm_test_top.env.agnt.mon [APB_MON_IN] 
TX#11
  Type:  READ
  Slave: 1
  Reg: 0
  Addr: 0x00000080
  Data: N/A
  Illegal: 0
UVM_INFO @ 575: uvm_test_top.env.agnt.mon [APB_MON_OUT] 
TX#11
  Type:  READ
  Slave: 1
  Reg: 0
  Addr: 0x00000080
  Data: 0x00000000
  Valid: 1
  Transfer Status: 0
UVM_INFO @ 575: uvm_test_top.env.agnt.drv [APB_DRV] TX#12  READ / SLAVE=0 REG=21 ADDR=0x00000054         
UVM_INFO @ 585: uvm_test_top.env.agnt.mon [APB_MON_IN] 
TX#12
  Type:  READ
  Slave: 0
  Reg: 21
  Addr: 0x00000054
  Data: N/A
  Illegal: 0
UVM_INFO @ 625: uvm_test_top.env.agnt.mon [APB_MON_OUT] 
TX#12
  Type:  READ
  Slave: 0
  Reg: 21
  Addr: 0x00000054
  Data: 0x00000000
  Valid: 1
  Transfer Status: 0
UVM_INFO @ 625: uvm_test_top.env.agnt.drv [APB_DRV] TX#13 WRITE / SLAVE=1 REG=18 ADDR=0x000000c8 DATA_IN=0xffffffff
UVM_INFO @ 635: uvm_test_top.env.agnt.mon [APB_MON_IN] 
TX#13
  Type: WRITE
  Slave: 1
  Reg: 18
  Addr: 0x000000c8
  Data: 0xffffffff
  Illegal: 0
UVM_INFO @ 675: uvm_test_top.env.agnt.mon [APB_MON_OUT] 
TX#13
  Type: WRITE
  Slave: 1
  Reg: 18
  Addr: 0x000000c8
  Data: N/A
  Valid: 0
  Transfer Status: 0
UVM_INFO @ 675: uvm_test_top.env.agnt.drv [APB_DRV] TX#14  READ / SLAVE=2 REG=3 ADDR=0x0000010c         
UVM_INFO @ 685: uvm_test_top.env.agnt.mon [APB_MON_IN] 
TX#14
  Type:  READ
  Slave: 2
  Reg: 3
  Addr: 0x0000010c
  Data: N/A
  Illegal: 0
UVM_INFO @ 725: uvm_test_top.env.agnt.mon [APB_MON_OUT] 
TX#14
  Type:  READ
  Slave: 2
  Reg: 3
  Addr: 0x0000010c
  Data: 0x00000000
  Valid: 1
  Transfer Status: 0
UVM_INFO @ 725: uvm_test_top.env.agnt.drv [APB_DRV] TX#15 WRITE / SLAVE=1 REG=23 ADDR=0x000000dc DATA_IN=0x2d6009a9
UVM_INFO @ 735: uvm_test_top.env.agnt.mon [APB_MON_IN] 
TX#15
  Type: WRITE
  Slave: 1
  Reg: 23
  Addr: 0x000000dc
  Data: 0x2d6009a9
  Illegal: 0
UVM_INFO @ 775: uvm_test_top.env.agnt.mon [APB_MON_OUT] 
TX#15
  Type: WRITE
  Slave: 1
  Reg: 23
  Addr: 0x000000dc
  Data: N/A
  Valid: 0
  Transfer Status: 0
UVM_INFO @ 775: uvm_test_top.env.agnt.drv [APB_DRV] TX#16  READ / SLAVE=2 REG=0 ADDR=0x00000100         
UVM_INFO @ 785: uvm_test_top.env.agnt.mon [APB_MON_IN] 
TX#16
  Type:  READ
  Slave: 2
  Reg: 0
  Addr: 0x00000100
  Data: N/A
  Illegal: 0
UVM_INFO @ 825: uvm_test_top.env.agnt.mon [APB_MON_OUT] 
TX#16
  Type:  READ
  Slave: 2
  Reg: 0
  Addr: 0x00000100
  Data: 0x00000000
  Valid: 1
  Transfer Status: 0
UVM_INFO @ 825: uvm_test_top.env.agnt.drv [APB_DRV] TX#17 WRITE / SLAVE=0 REG=9 ADDR=0x00000024 DATA_IN=0x92aa1127
UVM_INFO @ 835: uvm_test_top.env.agnt.mon [APB_MON_IN] 
TX#17
  Type: WRITE
  Slave: 0
  Reg: 9
  Addr: 0x00000024
  Data: 0x92aa1127
  Illegal: 0
UVM_INFO @ 875: uvm_test_top.env.agnt.mon [APB_MON_OUT] 
TX#17
  Type: WRITE
  Slave: 0
  Reg: 9
  Addr: 0x00000024
  Data: N/A
  Valid: 0
  Transfer Status: 0
UVM_INFO @ 875: uvm_test_top.env.agnt.drv [APB_DRV] TX#18 WRITE / SLAVE=1 REG=23 ADDR=0x000000dc DATA_IN=0x188cc392
UVM_INFO @ 885: uvm_test_top.env.agnt.mon [APB_MON_IN] 
TX#18
  Type: WRITE
  Slave: 1
  Reg: 23
  Addr: 0x000000dc
  Data: 0x188cc392
  Illegal: 0
UVM_INFO @ 925: uvm_test_top.env.agnt.mon [APB_MON_OUT] 
TX#18
  Type: WRITE
  Slave: 1
  Reg: 23
  Addr: 0x000000dc
  Data: N/A
  Valid: 0
  Transfer Status: 0
UVM_INFO @ 925: uvm_test_top.env.agnt.drv [APB_DRV] TX#19 WRITE / SLAVE=1 REG=5 ADDR=0x00000094 DATA_IN=0xd175cd94
UVM_INFO @ 935: uvm_test_top.env.agnt.mon [APB_MON_IN] 
TX#19
  Type: WRITE
  Slave: 1
  Reg: 5
  Addr: 0x00000094
  Data: 0xd175cd94
  Illegal: 0
UVM_INFO @ 975: uvm_test_top.env.agnt.mon [APB_MON_OUT] 
TX#19
  Type: WRITE
  Slave: 1
  Reg: 5
  Addr: 0x00000094
  Data: N/A
  Valid: 0
  Transfer Status: 0
UVM_INFO @ 975: uvm_test_top.env.agnt.drv [APB_DRV] TX#20 WRITE / SLAVE=1 REG=24 ADDR=0x000000e0 DATA_IN=0x2226f24d
UVM_INFO @ 985: uvm_test_top.env.agnt.mon [APB_MON_IN] 
TX#20
  Type: WRITE
  Slave: 1
  Reg: 24
  Addr: 0x000000e0
  Data: 0x2226f24d
  Illegal: 0
UVM_INFO @ 1025: uvm_test_top.env.agnt.mon [APB_MON_OUT] 
TX#20
  Type: WRITE
  Slave: 1
  Reg: 24
  Addr: 0x000000e0
  Data: N/A
  Valid: 0
  Transfer Status: 0
